TOOL:	xrun	25.09-s001: Started on Aug 30, 2026 at 23:18:58 PDT
TOOL:	xrun(64)	25.09-s001: Started on Aug 30, 2026 at 23:18:58 PDT
xrun(64): 25.09-s001: (c) Copyright 1995-2025 Cadence Design Systems, Inc.
Loading snapshot worklib.axi4l_subordinate_wrapper:sv .................... Done
SVSEED default: 1
xcelium> source /CMC/tools/cadence/XCELIUMMAIN25.09.001_lnx86/tools/xcelium/files/xmsimrc
xcelium> source /CMC/tools/cadence/XCELIUMMAIN25.09.001_lnx86/tools/methodology/UVM/CDNS-IEEE-20/additions/sv/files/tcl/uvm_sim.tcl
xcelium> run
UVM_INFO /CMC/tools/cadence/XCELIUMMAIN25.09.001_lnx86/tools/methodology/UVM/CDNS-IEEE-20/sv/src/base/uvm_root.svh(458) @ 0: reporter [UVM/RELNOTES] 
  ***********       IMPORTANT RELEASE NOTES         ************

  This implementation of the UVM Library deviates from the 1800.2-2020
  standard.  See the DEVIATIONS.md file contained in the release
  for more details.

----------------------------------------------------------------
Accellera:1800.2-2020:UVM:2.0

All copyright owners for this kit are listed in NOTICE.txt
All Rights Reserved Worldwide
----------------------------------------------------------------

      (Specify +UVM_NO_RELNOTES to turn off this notice)

UVM_INFO @ 0: reporter [RNTST] Running test queue7_read_capacity_reuse_test...
UVM_INFO ./uvm/tb/unit_tests/base_test.sv(20) @ 0: uvm_test_top [BASE_CFG] Configuring downstream_mode=UVM_ACTIVE
UVM_INFO ./uvm/axi4l_uvc/axi4l_subordinate_agent.sv(45) @ 0: uvm_test_top.env.downstream_agent [SUB_AGENT_BUILD] Subordinate agent sees is_active=UVM_ACTIVE
UVM_INFO /CMC/tools/cadence/XCELIUMMAIN25.09.001_lnx86/tools/methodology/UVM/CDNS-IEEE-20/sv/src/base/uvm_root.svh(653) @ 0: reporter [UVMTOP] UVM testbench topology:
-------------------------------------------------------------------------------------
Name                          Type                                   Size  Value     
-------------------------------------------------------------------------------------
<unnamed>                     uvm_root                               -     @2678     
  uvm_test_top                queue7_read_capacity_reuse_test        -     @3092     
    env                       axi4l_env                              -     @3329     
      downstream_agent        axi4l_subordinate_agent                -     @3575     
        monitor               axi4l_monitor                          -     @3318     
          read_ap             uvm_analysis_port                      -     @4005     
          write_ap            uvm_analysis_port                      -     @4040     
        read_driver           axi4l_read_driver                      -     @4554     
          rsp_port            uvm_analysis_port                      -     @4661     
          seq_item_port       uvm_seq_item_pull_port                 -     @4626     
        read_sequencer        axi4l_read_sequencer                   -     @4104     
          rsp_export          uvm_analysis_export                    -     @4147     
          seq_item_export     uvm_seq_item_pull_imp                  -     @4560     
          arbitration_queue   array                                  0     -         
          lock_queue          array                                  0     -         
          num_last_reqs       integral                               32    'd1       
          num_last_rsps       integral                               32    'd1       
        write_driver          axi4l_write_driver                     -     @5134     
          rsp_port            uvm_analysis_port                      -     @5238     
          seq_item_port       uvm_seq_item_pull_port                 -     @5204     
        write_sequencer       axi4l_write_sequencer                  -     @4693     
          rsp_export          uvm_analysis_export                    -     @4735     
          seq_item_export     uvm_seq_item_pull_imp                  -     @5139     
          arbitration_queue   array                                  0     -         
          lock_queue          array                                  0     -         
          num_last_reqs       integral                               32    'd1       
          num_last_rsps       integral                               32    'd1       
      read_protocol_cov       axi4l_read_protocol_coverage           -     @3607     
        analysis_imp          uvm_analysis_imp                       -     @3644     
      sb                      axi4l_sb                               -     @3783     
        downstream_read_imp   uvm_analysis_imp_downstream_read       -     @3867     
        downstream_write_imp  uvm_analysis_imp_downstream_write      -     @3935     
        upstream_read_imp     uvm_analysis_imp_upstream_read         -     @3832     
        upstream_write_imp    uvm_analysis_imp_upstream_write        -     @3901     
      upstream_agent          axi4l_manager_agent                    -     @3543     
        monitor               axi4l_monitor                          -     @5326     
          read_ap             uvm_analysis_port                      -     @5360     
          write_ap            uvm_analysis_port                      -     @5394     
        read_driver           axi4l_read_driver                      -     @5864     
          rsp_port            uvm_analysis_port                      -     @5967     
          seq_item_port       uvm_seq_item_pull_port                 -     @5933     
        read_sequencer        axi4l_read_sequencer                   -     @5390     
          rsp_export          uvm_analysis_export                    -     @5465     
          seq_item_export     uvm_seq_item_pull_imp                  -     @5869     
          arbitration_queue   array                                  0     -         
          lock_queue          array                                  0     -         
          num_last_reqs       integral                               32    'd1       
          num_last_rsps       integral                               32    'd1       
        write_driver          axi4l_write_driver                     -     @6438     
          rsp_port            uvm_analysis_port                      -     @6541     
          seq_item_port       uvm_seq_item_pull_port                 -     @6507     
        write_sequencer       axi4l_write_sequencer                  -     @5998     
          rsp_export          uvm_analysis_export                    -     @6039     
          seq_item_export     uvm_seq_item_pull_imp                  -     @6443     
          arbitration_queue   array                                  0     -         
          lock_queue          array                                  0     -         
          num_last_reqs       integral                               32    'd1       
          num_last_rsps       integral                               32    'd1       
        is_active             uvm_active_passive_enum                1     UVM_ACTIVE
      write_protocol_cov      axi4l_write_protocol_coverage          -     @3639     
        downstream_write_imp  uvm_analysis_imp_cov_downstream_write  -     @3751     
        upstream_write_imp    uvm_analysis_imp_cov_upstream_write    -     @3716     
-------------------------------------------------------------------------------------
UVM_INFO ./uvm/tb/unit_tests/queue_tests/queue7_read_capacity_reuse.sv(107) @ 0: uvm_test_top [QUEUE_07] Starting read retirement and capacity-reuse test
UVM_INFO ./uvm/axi4l_uvc/sequences/axi4l_read_seq.sv(16) @ 0: uvm_test_top.env.upstream_agent.read_sequencer@@manager_read_seq0 [queue7_manager_read_seq] Upstream AXI4-Lite Read Sequence
UVM_INFO ./uvm/axi4l_uvc/sequences/axi4l_read_seq.sv(50) @ 0: uvm_test_top.env.downstream_agent.read_sequencer@@subordinate_read_seq0 [queue7_subordinate_read_seq] Downstream AXI4-Lite Read Sequence
UVM_INFO ./uvm/tb/coverage/axi4l_read_protocol_coverage.sv(86) @ 65: uvm_test_top.env.read_protocol_cov [READ_COVERAGE] Sampled role=AXI4L_SUBORDINATE kind=READ_REQUEST addr=0x40000600 prot=000
UVM_INFO ./uvm/axi4l_uvc/axi4l_read_driver.sv(182) @ 65: uvm_test_top.env.downstream_agent.read_driver [SUB_RD_PIPE] Pipelined AR accepted for addr=0x40000600
UVM_INFO ./uvm/tb/coverage/axi4l_read_protocol_coverage.sv(86) @ 65: uvm_test_top.env.read_protocol_cov [READ_COVERAGE] Sampled role=AXI4L_MANAGER kind=READ_REQUEST addr=0x40000600 prot=000
UVM_INFO ./uvm/axi4l_uvc/axi4l_read_driver.sv(103) @ 65: uvm_test_top.env.upstream_agent.read_driver [MGR_RD_PIPE] Pipelined AR accepted for addr=0x40000600
UVM_INFO ./uvm/axi4l_uvc/sequences/axi4l_read_seq.sv(50) @ 65: uvm_test_top.env.downstream_agent.read_sequencer@@subordinate_read_seq1 [queue7_subordinate_read_seq] Downstream AXI4-Lite Read Sequence
UVM_INFO ./uvm/axi4l_uvc/sequences/axi4l_read_seq.sv(16) @ 65: uvm_test_top.env.upstream_agent.read_sequencer@@manager_read_seq1 [queue7_manager_read_seq] Upstream AXI4-Lite Read Sequence
UVM_INFO ./uvm/tb/coverage/axi4l_read_protocol_coverage.sv(86) @ 85: uvm_test_top.env.read_protocol_cov [READ_COVERAGE] Sampled role=AXI4L_SUBORDINATE kind=READ_REQUEST addr=0x40000610 prot=000
UVM_INFO ./uvm/axi4l_uvc/axi4l_read_driver.sv(182) @ 85: uvm_test_top.env.downstream_agent.read_driver [SUB_RD_PIPE] Pipelined AR accepted for addr=0x40000610
UVM_INFO ./uvm/tb/coverage/axi4l_read_protocol_coverage.sv(86) @ 85: uvm_test_top.env.read_protocol_cov [READ_COVERAGE] Sampled role=AXI4L_MANAGER kind=READ_REQUEST addr=0x40000610 prot=000
UVM_INFO ./uvm/axi4l_uvc/axi4l_read_driver.sv(103) @ 85: uvm_test_top.env.upstream_agent.read_driver [MGR_RD_PIPE] Pipelined AR accepted for addr=0x40000610
UVM_INFO ./uvm/axi4l_uvc/sequences/axi4l_read_seq.sv(50) @ 85: uvm_test_top.env.downstream_agent.read_sequencer@@subordinate_read_seq2 [queue7_subordinate_read_seq] Downstream AXI4-Lite Read Sequence
UVM_INFO ./uvm/axi4l_uvc/sequences/axi4l_read_seq.sv(16) @ 85: uvm_test_top.env.upstream_agent.read_sequencer@@manager_read_seq2 [queue7_manager_read_seq] Upstream AXI4-Lite Read Sequence
SVA_COVER: QUEUE-01 multiple outstanding reads exercised, outst_cnt=2
UVM_INFO ./uvm/tb/coverage/axi4l_read_protocol_coverage.sv(86) @ 105: uvm_test_top.env.read_protocol_cov [READ_COVERAGE] Sampled role=AXI4L_SUBORDINATE kind=READ_REQUEST addr=0x40000620 prot=000
UVM_INFO ./uvm/axi4l_uvc/axi4l_read_driver.sv(182) @ 105: uvm_test_top.env.downstream_agent.read_driver [SUB_RD_PIPE] Pipelined AR accepted for addr=0x40000620
UVM_INFO ./uvm/tb/coverage/axi4l_read_protocol_coverage.sv(86) @ 105: uvm_test_top.env.read_protocol_cov [READ_COVERAGE] Sampled role=AXI4L_MANAGER kind=READ_REQUEST addr=0x40000620 prot=000
UVM_INFO ./uvm/axi4l_uvc/axi4l_read_driver.sv(103) @ 105: uvm_test_top.env.upstream_agent.read_driver [MGR_RD_PIPE] Pipelined AR accepted for addr=0x40000620
UVM_INFO ./uvm/axi4l_uvc/sequences/axi4l_read_seq.sv(50) @ 105: uvm_test_top.env.downstream_agent.read_sequencer@@subordinate_read_seq3 [queue7_subordinate_read_seq] Downstream AXI4-Lite Read Sequence
UVM_INFO ./uvm/axi4l_uvc/sequences/axi4l_read_seq.sv(16) @ 105: uvm_test_top.env.upstream_agent.read_sequencer@@manager_read_seq3 [queue7_manager_read_seq] Upstream AXI4-Lite Read Sequence
SVA_COVER: QUEUE-01 at least three reads simultaneously outstanding
UVM_INFO ./uvm/tb/coverage/axi4l_read_protocol_coverage.sv(86) @ 125: uvm_test_top.env.read_protocol_cov [READ_COVERAGE] Sampled role=AXI4L_SUBORDINATE kind=READ_REQUEST addr=0x40000630 prot=000
UVM_INFO ./uvm/axi4l_uvc/axi4l_read_driver.sv(182) @ 125: uvm_test_top.env.downstream_agent.read_driver [SUB_RD_PIPE] Pipelined AR accepted for addr=0x40000630
UVM_INFO ./uvm/tb/coverage/axi4l_read_protocol_coverage.sv(86) @ 125: uvm_test_top.env.read_protocol_cov [READ_COVERAGE] Sampled role=AXI4L_MANAGER kind=READ_REQUEST addr=0x40000630 prot=000
UVM_INFO ./uvm/axi4l_uvc/axi4l_read_driver.sv(103) @ 125: uvm_test_top.env.upstream_agent.read_driver [MGR_RD_PIPE] Pipelined AR accepted for addr=0x40000630
UVM_INFO ./uvm/tb/coverage/axi4l_read_protocol_coverage.sv(116) @ 175: uvm_test_top.env.read_protocol_cov [READ_COVERAGE] Sampled role=AXI4L_SUBORDINATE kind=READ_RESPONSE data=0x0 resp=RESP_OKAY
UVM_INFO ./uvm/axi4l_uvc/axi4l_read_driver.sv(227) @ 175: uvm_test_top.env.downstream_agent.read_driver [SUB_RD_PIPE] Pipelined R completed for addr=0x40000600 data=0x0 resp=0
UVM_INFO ./uvm/tb/coverage/axi4l_read_protocol_coverage.sv(116) @ 175: uvm_test_top.env.read_protocol_cov [READ_COVERAGE] Sampled role=AXI4L_MANAGER kind=READ_RESPONSE data=0x0 resp=RESP_OKAY
UVM_INFO ./uvm/axi4l_uvc/axi4l_read_driver.sv(138) @ 175: uvm_test_top.env.upstream_agent.read_driver [MGR_RD_PIPE] Pipelined R response accepted: data=0x0 resp=0
UVM_INFO ./uvm/tb/coverage/axi4l_read_protocol_coverage.sv(116) @ 285: uvm_test_top.env.read_protocol_cov [READ_COVERAGE] Sampled role=AXI4L_SUBORDINATE kind=READ_RESPONSE data=0x0 resp=RESP_OKAY
UVM_INFO ./uvm/axi4l_uvc/axi4l_read_driver.sv(227) @ 285: uvm_test_top.env.downstream_agent.read_driver [SUB_RD_PIPE] Pipelined R completed for addr=0x40000610 data=0x0 resp=0
UVM_INFO ./uvm/tb/coverage/axi4l_read_protocol_coverage.sv(116) @ 285: uvm_test_top.env.read_protocol_cov [READ_COVERAGE] Sampled role=AXI4L_MANAGER kind=READ_RESPONSE data=0x0 resp=RESP_OKAY
UVM_INFO ./uvm/axi4l_uvc/axi4l_read_driver.sv(138) @ 285: uvm_test_top.env.upstream_agent.read_driver [MGR_RD_PIPE] Pipelined R response accepted: data=0x0 resp=0
UVM_INFO ./uvm/tb/unit_tests/queue_tests/queue7_read_capacity_reuse.sv(134) @ 305: uvm_test_top [QUEUE_07] Earlier reads partially retired; issuing second batch into released capacity
UVM_INFO ./uvm/axi4l_uvc/sequences/axi4l_read_seq.sv(16) @ 305: uvm_test_top.env.upstream_agent.read_sequencer@@manager_read_seq4 [queue7_manager_read_seq] Upstream AXI4-Lite Read Sequence
UVM_INFO ./uvm/axi4l_uvc/sequences/axi4l_read_seq.sv(50) @ 305: uvm_test_top.env.downstream_agent.read_sequencer@@subordinate_read_seq4 [queue7_subordinate_read_seq] Downstream AXI4-Lite Read Sequence
SVA_COVER: QUEUE-07 new read admitted after earlier retirements freed capacity
UVM_INFO ./uvm/tb/coverage/axi4l_read_protocol_coverage.sv(86) @ 325: uvm_test_top.env.read_protocol_cov [READ_COVERAGE] Sampled role=AXI4L_SUBORDINATE kind=READ_REQUEST addr=0x40000640 prot=000
UVM_INFO ./uvm/axi4l_uvc/axi4l_read_driver.sv(182) @ 325: uvm_test_top.env.downstream_agent.read_driver [SUB_RD_PIPE] Pipelined AR accepted for addr=0x40000640
UVM_INFO ./uvm/tb/coverage/axi4l_read_protocol_coverage.sv(86) @ 325: uvm_test_top.env.read_protocol_cov [READ_COVERAGE] Sampled role=AXI4L_MANAGER kind=READ_REQUEST addr=0x40000640 prot=000
UVM_INFO ./uvm/axi4l_uvc/axi4l_read_driver.sv(103) @ 325: uvm_test_top.env.upstream_agent.read_driver [MGR_RD_PIPE] Pipelined AR accepted for addr=0x40000640
UVM_INFO ./uvm/axi4l_uvc/sequences/axi4l_read_seq.sv(50) @ 325: uvm_test_top.env.downstream_agent.read_sequencer@@subordinate_read_seq5 [queue7_subordinate_read_seq] Downstream AXI4-Lite Read Sequence
UVM_INFO ./uvm/axi4l_uvc/sequences/axi4l_read_seq.sv(16) @ 325: uvm_test_top.env.upstream_agent.read_sequencer@@manager_read_seq5 [queue7_manager_read_seq] Upstream AXI4-Lite Read Sequence
UVM_INFO ./uvm/tb/coverage/axi4l_read_protocol_coverage.sv(86) @ 345: uvm_test_top.env.read_protocol_cov [READ_COVERAGE] Sampled role=AXI4L_SUBORDINATE kind=READ_REQUEST addr=0x40000650 prot=000
UVM_INFO ./uvm/axi4l_uvc/axi4l_read_driver.sv(182) @ 345: uvm_test_top.env.downstream_agent.read_driver [SUB_RD_PIPE] Pipelined AR accepted for addr=0x40000650
UVM_INFO ./uvm/tb/coverage/axi4l_read_protocol_coverage.sv(86) @ 345: uvm_test_top.env.read_protocol_cov [READ_COVERAGE] Sampled role=AXI4L_MANAGER kind=READ_REQUEST addr=0x40000650 prot=000
UVM_INFO ./uvm/axi4l_uvc/axi4l_read_driver.sv(103) @ 345: uvm_test_top.env.upstream_agent.read_driver [MGR_RD_PIPE] Pipelined AR accepted for addr=0x40000650
UVM_INFO ./uvm/axi4l_uvc/sequences/axi4l_read_seq.sv(50) @ 345: uvm_test_top.env.downstream_agent.read_sequencer@@subordinate_read_seq6 [queue7_subordinate_read_seq] Downstream AXI4-Lite Read Sequence
UVM_INFO ./uvm/axi4l_uvc/sequences/axi4l_read_seq.sv(16) @ 345: uvm_test_top.env.upstream_agent.read_sequencer@@manager_read_seq6 [queue7_manager_read_seq] Upstream AXI4-Lite Read Sequence
SVA_COVER: QUEUE-07 retired read capacity was reused by later requests
UVM_INFO ./uvm/tb/coverage/axi4l_read_protocol_coverage.sv(86) @ 365: uvm_test_top.env.read_protocol_cov [READ_COVERAGE] Sampled role=AXI4L_SUBORDINATE kind=READ_REQUEST addr=0x40000660 prot=000
UVM_INFO ./uvm/axi4l_uvc/axi4l_read_driver.sv(182) @ 365: uvm_test_top.env.downstream_agent.read_driver [SUB_RD_PIPE] Pipelined AR accepted for addr=0x40000660
UVM_INFO ./uvm/tb/coverage/axi4l_read_protocol_coverage.sv(86) @ 365: uvm_test_top.env.read_protocol_cov [READ_COVERAGE] Sampled role=AXI4L_MANAGER kind=READ_REQUEST addr=0x40000660 prot=000
UVM_INFO ./uvm/axi4l_uvc/axi4l_read_driver.sv(103) @ 365: uvm_test_top.env.upstream_agent.read_driver [MGR_RD_PIPE] Pipelined AR accepted for addr=0x40000660
UVM_INFO ./uvm/tb/coverage/axi4l_read_protocol_coverage.sv(116) @ 395: uvm_test_top.env.read_protocol_cov [READ_COVERAGE] Sampled role=AXI4L_SUBORDINATE kind=READ_RESPONSE data=0x0 resp=RESP_OKAY
UVM_INFO ./uvm/axi4l_uvc/axi4l_read_driver.sv(227) @ 395: uvm_test_top.env.downstream_agent.read_driver [SUB_RD_PIPE] Pipelined R completed for addr=0x40000620 data=0x0 resp=0
UVM_INFO ./uvm/tb/coverage/axi4l_read_protocol_coverage.sv(116) @ 395: uvm_test_top.env.read_protocol_cov [READ_COVERAGE] Sampled role=AXI4L_MANAGER kind=READ_RESPONSE data=0x0 resp=RESP_OKAY
UVM_INFO ./uvm/axi4l_uvc/axi4l_read_driver.sv(138) @ 395: uvm_test_top.env.upstream_agent.read_driver [MGR_RD_PIPE] Pipelined R response accepted: data=0x0 resp=0
UVM_INFO ./uvm/tb/coverage/axi4l_read_protocol_coverage.sv(116) @ 505: uvm_test_top.env.read_protocol_cov [READ_COVERAGE] Sampled role=AXI4L_SUBORDINATE kind=READ_RESPONSE data=0x0 resp=RESP_OKAY
UVM_INFO ./uvm/axi4l_uvc/axi4l_read_driver.sv(227) @ 505: uvm_test_top.env.downstream_agent.read_driver [SUB_RD_PIPE] Pipelined R completed for addr=0x40000630 data=0x0 resp=0
UVM_INFO ./uvm/tb/coverage/axi4l_read_protocol_coverage.sv(116) @ 505: uvm_test_top.env.read_protocol_cov [READ_COVERAGE] Sampled role=AXI4L_MANAGER kind=READ_RESPONSE data=0x0 resp=RESP_OKAY
UVM_INFO ./uvm/axi4l_uvc/axi4l_read_driver.sv(138) @ 505: uvm_test_top.env.upstream_agent.read_driver [MGR_RD_PIPE] Pipelined R response accepted: data=0x0 resp=0
UVM_INFO ./uvm/tb/coverage/axi4l_read_protocol_coverage.sv(116) @ 615: uvm_test_top.env.read_protocol_cov [READ_COVERAGE] Sampled role=AXI4L_SUBORDINATE kind=READ_RESPONSE data=0x0 resp=RESP_OKAY
UVM_INFO ./uvm/axi4l_uvc/axi4l_read_driver.sv(227) @ 615: uvm_test_top.env.downstream_agent.read_driver [SUB_RD_PIPE] Pipelined R completed for addr=0x40000640 data=0x0 resp=0
UVM_INFO ./uvm/tb/coverage/axi4l_read_protocol_coverage.sv(116) @ 615: uvm_test_top.env.read_protocol_cov [READ_COVERAGE] Sampled role=AXI4L_MANAGER kind=READ_RESPONSE data=0x0 resp=RESP_OKAY
UVM_INFO ./uvm/axi4l_uvc/axi4l_read_driver.sv(138) @ 615: uvm_test_top.env.upstream_agent.read_driver [MGR_RD_PIPE] Pipelined R response accepted: data=0x0 resp=0
UVM_INFO ./uvm/tb/coverage/axi4l_read_protocol_coverage.sv(116) @ 725: uvm_test_top.env.read_protocol_cov [READ_COVERAGE] Sampled role=AXI4L_SUBORDINATE kind=READ_RESPONSE data=0x0 resp=RESP_OKAY
UVM_INFO ./uvm/axi4l_uvc/axi4l_read_driver.sv(227) @ 725: uvm_test_top.env.downstream_agent.read_driver [SUB_RD_PIPE] Pipelined R completed for addr=0x40000650 data=0x0 resp=0
UVM_INFO ./uvm/tb/coverage/axi4l_read_protocol_coverage.sv(116) @ 725: uvm_test_top.env.read_protocol_cov [READ_COVERAGE] Sampled role=AXI4L_MANAGER kind=READ_RESPONSE data=0x0 resp=RESP_OKAY
UVM_INFO ./uvm/axi4l_uvc/axi4l_read_driver.sv(138) @ 725: uvm_test_top.env.upstream_agent.read_driver [MGR_RD_PIPE] Pipelined R response accepted: data=0x0 resp=0
SVA_COVER: QUEUE-02 three outstanding reads retired sequentially
UVM_INFO ./uvm/tb/coverage/axi4l_read_protocol_coverage.sv(116) @ 835: uvm_test_top.env.read_protocol_cov [READ_COVERAGE] Sampled role=AXI4L_SUBORDINATE kind=READ_RESPONSE data=0x0 resp=RESP_OKAY
UVM_INFO ./uvm/axi4l_uvc/axi4l_read_driver.sv(227) @ 835: uvm_test_top.env.downstream_agent.read_driver [SUB_RD_PIPE] Pipelined R completed for addr=0x40000660 data=0x0 resp=0
UVM_INFO ./uvm/tb/coverage/axi4l_read_protocol_coverage.sv(116) @ 835: uvm_test_top.env.read_protocol_cov [READ_COVERAGE] Sampled role=AXI4L_MANAGER kind=READ_RESPONSE data=0x0 resp=RESP_OKAY
UVM_INFO ./uvm/axi4l_uvc/axi4l_read_driver.sv(138) @ 835: uvm_test_top.env.upstream_agent.read_driver [MGR_RD_PIPE] Pipelined R response accepted: data=0x0 resp=0
UVM_INFO ./uvm/tb/unit_tests/queue_tests/queue7_read_capacity_reuse.sv(164) @ 865: uvm_test_top [QUEUE_07] Retired read-queue capacity was successfully reused and all reads completed
COV_HIT READ_PROTOCOL ADDR_SUBORDINATE_REGION
COV_HIT READ_PROTOCOL CROSS_ROLE_MANAGER_KIND_REQUEST
COV_HIT READ_PROTOCOL CROSS_ROLE_MANAGER_KIND_RESPONSE
COV_HIT READ_PROTOCOL CROSS_ROLE_MANAGER_PROT_000
COV_HIT READ_PROTOCOL CROSS_ROLE_MANAGER_RESP_OKAY
COV_HIT READ_PROTOCOL CROSS_ROLE_SUBORDINATE_KIND_REQUEST
COV_HIT READ_PROTOCOL CROSS_ROLE_SUBORDINATE_KIND_RESPONSE
COV_HIT READ_PROTOCOL CROSS_ROLE_SUBORDINATE_PROT_000
COV_HIT READ_PROTOCOL CROSS_ROLE_SUBORDINATE_RESP_OKAY
COV_HIT READ_PROTOCOL KIND_REQUEST
COV_HIT READ_PROTOCOL KIND_RESPONSE
COV_HIT READ_PROTOCOL PROT_000
COV_HIT READ_PROTOCOL RESP_OKAY
COV_HIT READ_PROTOCOL ROLE_MANAGER
COV_HIT READ_PROTOCOL ROLE_SUBORDINATE
UVM_INFO ./uvm/tb/coverage/axi4l_read_protocol_coverage.sv(191) @ 965: uvm_test_top.env.read_protocol_cov [READ_COVERAGE_SUMMARY] AXI4-Lite read protocol coverage:
  Overall role/kind/address/protection/response coverage = 61.46%
  Role coverage                 = 100.00%
  Request/response coverage     = 100.00%
  ARPROT coverage               = 12.50%
  Address-region coverage       = 100.00%
  Response coverage             = 33.33%
  Role x kind coverage          = 100.00%
  Role x protection coverage    = 12.50%
  Role x response coverage      = 33.33%
UVM_INFO ./uvm/tb/coverage/axi4l_write_protocol_coverage.sv(291) @ 965: uvm_test_top.env.write_protocol_cov [WRITE_COVERAGE_SUMMARY] AXI4-Lite write protocol coverage:
  Overall coverage              = 0.00%
  Role coverage                 = 0.00%
  AW/W/B kind coverage          = 0.00%
  Address-region coverage       = 0.00%
  AWPROT coverage               = 0.00%
  WSTRB coverage                = 0.00%
  BRESP coverage                = 0.00%
  Role x kind coverage          = 0.00%
  Role x protection coverage    = 0.00%
  Role x strobe coverage        = 0.00%
  Role x response coverage      = 0.00%
UVM_INFO /CMC/tools/cadence/XCELIUMMAIN25.09.001_lnx86/tools/methodology/UVM/CDNS-IEEE-20/sv/src/base/uvm_report_catcher.svh(666) @ 965: reporter [UVM/REPORT/CATCHER] 
--- UVM Report catcher Summary ---


Number of demoted UVM_FATAL reports  :    0
Number of demoted UVM_ERROR reports  :    0
Number of demoted UVM_WARNING reports:    0
Number of caught UVM_FATAL reports   :    0
Number of caught UVM_ERROR reports   :    0
Number of caught UVM_WARNING reports :    0

UVM_INFO /CMC/tools/cadence/XCELIUMMAIN25.09.001_lnx86/tools/methodology/UVM/CDNS-IEEE-20/sv/src/base/uvm_report_server.svh(915) @ 965: reporter [UVM/REPORT/SERVER] 
--- UVM Report Summary ---

** Report counts by severity
UVM_INFO :   81
UVM_WARNING :    0
UVM_ERROR :    0
UVM_FATAL :    0
** Report counts by id
[BASE_CFG]     1
[MGR_RD_PIPE]    14
[QUEUE_07]     3
[READ_COVERAGE]    28
[READ_COVERAGE_SUMMARY]     1
[RNTST]     1
[SUB_AGENT_BUILD]     1
[SUB_RD_PIPE]    14
[UVM/RELNOTES]     1
[UVM/REPORT/CATCHER]     1
[UVMTOP]     1
[WRITE_COVERAGE_SUMMARY]     1
[queue7_manager_read_seq]     7
[queue7_subordinate_read_seq]     7

COV_HIT RECOVERY ACK_NO
COV_HIT RECOVERY CROSS_MODE_NORMAL_IRQ_LOW
COV_HIT RECOVERY CROSS_MODE_NORMAL_QUIESCENT_NO
COV_HIT RECOVERY CROSS_MODE_NORMAL_QUIESCENT_YES
COV_HIT RECOVERY EPOCH_CLEAR_NO
COV_HIT RECOVERY IRQ_LOW
COV_HIT RECOVERY MODE_NORMAL
COV_HIT RECOVERY QUIESCENT_NO
COV_HIT RECOVERY QUIESCENT_YES
RECOVERY_COVERAGE_SUMMARY
Recovery-state coverage = 41.67%
Mode/state coverage = 16.67%
Upstream-quiescence coverage = 100.00%
IRQ coverage = 50.00%
Recovery-ack coverage = 50.00%
Epoch-clear coverage = 50.00%
Mode x quiescence coverage = 16.67%
Mode x IRQ coverage = 8.33%
Recovered-fault coverage = 0.00%
Recovered fault-source coverage = 0.00%
FAULT_COVERAGE_SUMMARY
Overall fault coverage  = 0.00%
Fault-source coverage = 0.00%
Fault enable/mask coverage = 0.00%
Fault source x enable coverage  0.00%
COV_HIT WRITE_QUEUE CROSS_OUTST_EMPTY_OP_00
COV_HIT WRITE_QUEUE DRAIN_ZERO
COV_HIT WRITE_QUEUE FULL_NO
COV_HIT WRITE_QUEUE GHOST_NO
COV_HIT WRITE_QUEUE INJECT_NO
COV_HIT WRITE_QUEUE OP_IDLE
COV_HIT WRITE_QUEUE OUTST_EMPTY
COV_HIT WRITE_QUEUE PAIR_STATE_IDLE
WRITE_QUEUE_COVERAGE_SUMMARY
Overall write-queue coverage = 29.17%
Outstanding occupancy coverage = 11.11%
Ghost-drain occupancy coverage = 11.11%
Queue operation coverage = 25.00%
Write-pair state coverage = 33.33%
Timeout injection coverage = 50.00%
Ghost response coverage = 50.00%
Full/backpressure coverage = 50.00%
Occupancy x operation coverage = 2.78%
COV_HIT READ_QUEUE CROSS_OUTST_EMPTY_OP_00
COV_HIT READ_QUEUE CROSS_OUTST_EMPTY_OP_10
COV_HIT READ_QUEUE CROSS_OUTST_ONE_OP_00
COV_HIT READ_QUEUE CROSS_OUTST_ONE_OP_01
COV_HIT READ_QUEUE CROSS_OUTST_ONE_OP_10
COV_HIT READ_QUEUE CROSS_OUTST_PARTIAL_2_OP_00
COV_HIT READ_QUEUE CROSS_OUTST_PARTIAL_2_OP_01
COV_HIT READ_QUEUE CROSS_OUTST_PARTIAL_2_OP_10
COV_HIT READ_QUEUE CROSS_OUTST_PARTIAL_3_OP_00
COV_HIT READ_QUEUE CROSS_OUTST_PARTIAL_3_OP_01
COV_HIT READ_QUEUE CROSS_OUTST_PARTIAL_3_OP_10
COV_HIT READ_QUEUE CROSS_OUTST_PARTIAL_4_OP_00
COV_HIT READ_QUEUE CROSS_OUTST_PARTIAL_4_OP_01
COV_HIT READ_QUEUE CROSS_OUTST_PARTIAL_4_OP_10
COV_HIT READ_QUEUE CROSS_OUTST_PARTIAL_5_OP_00
COV_HIT READ_QUEUE CROSS_OUTST_PARTIAL_5_OP_01
COV_HIT READ_QUEUE DRAIN_ZERO
COV_HIT READ_QUEUE FULL_NO
COV_HIT READ_QUEUE GHOST_NO
COV_HIT READ_QUEUE INJECT_NO
COV_HIT READ_QUEUE OP_ENQUEUE_ONLY
COV_HIT READ_QUEUE OP_IDLE
COV_HIT READ_QUEUE OP_RETIRE_ONLY
COV_HIT READ_QUEUE OUTST_EMPTY
COV_HIT READ_QUEUE OUTST_ONE
COV_HIT READ_QUEUE OUTST_PARTIAL_2
COV_HIT READ_QUEUE OUTST_PARTIAL_3
COV_HIT READ_QUEUE OUTST_PARTIAL_4
COV_HIT READ_QUEUE OUTST_PARTIAL_5
READ_QUEUE_COVERAGE_SUMMARY
Overall read-queue coverage = 49.60%
Outstanding occupancy coverage = 66.67%
Ghost-drain occupancy coverage = 11.11%
Queue operation coverage = 75.00%
Timeout injection coverage = 50.00%
Ghost response coverage = 50.00%
Full/backpressure coverage = 50.00%
Occupancy x operation coverage = 44.44%
Simulation complete via $finish(1) at time 965 NS + 51
/CMC/tools/cadence/XCELIUMMAIN25.09.001_lnx86/tools/methodology/UVM/CDNS-IEEE-20/sv/src/base/uvm_root.svh:598 		$finish;
xcelium> exit
xmsim: *N,COVCGN: Coverage configuration file command "set_covergroup -new_instance_reporting" can be specified to improve the scoping and naming of covergroup instances. It may be noted that subsequent merging of a coverage database saved with this command and a coverage database saved without this command is not allowed.
xmsim: *W,CGDEFN: Default name "tb_top.dut.u_rd.read_queue_cov.read_queue_cov_inst" will be generated for covergroup instance "read_queue_cov_inst" as the name of the covergroup instance is not specified explicitly: ./uvm/tb/coverage/axi4l_queue_coverage.sv, 85.
xmsim: *W,CGDEFN: Default name "tb_top.dut.u_wr.write_queue_cov.write_queue_cov_inst" will be generated for covergroup instance "write_queue_cov_inst" as the name of the covergroup instance is not specified explicitly: ./uvm/tb/coverage/axi4l_queue_coverage.sv, 276.
xmsim: *W,CGDEFN: Default name "tb_top.dut.fault_cov.fault_cov_inst" will be generated for covergroup instance "fault_cov_inst" as the name of the covergroup instance is not specified explicitly: ./uvm/tb/coverage/axi4l_fault_coverage.sv, 35.
xmsim: *W,CGDEFN: Default name "tb_top.dut.recovery_cov.recovery_state_cov_inst" will be generated for covergroup instance "recovery_state_cov_inst" as the name of the covergroup instance is not specified explicitly: ./uvm/tb/coverage/axi4l_recovery_coverage.sv, 83.
xmsim: *W,CGDEFN: Default name "tb_top.dut.recovery_cov.recovered_fault_cov_inst" will be generated for covergroup instance "recovered_fault_cov_inst" as the name of the covergroup instance is not specified explicitly: ./uvm/tb/coverage/axi4l_recovery_coverage.sv, 84.

coverage setup:
  workdir  :  ./cov_work
  dutinst  :  axi4l_subordinate_wrapper(axi4l_subordinate_wrapper)
  dutinst  :  tb_top(tb_top)
  scope    :  scope
  testname :  queue7_read_capacity_reuse_test

coverage files:
  model(design data) :  ./cov_work/scope/icc_527623b8_5b8036c3.ucm (reused)
  data               :  ./cov_work/scope/queue7_read_capacity_reuse_test/icc_527623b8_5b8036c3.ucd
TOOL:	xrun(64)	25.09-s001: Exiting on Aug 30, 2026 at 23:19:00 PDT  (total: 00:00:02)
