TOOL:	xrun	25.09-s001: Started on Aug 30, 2026 at 23:17:58 PDT
TOOL:	xrun(64)	25.09-s001: Started on Aug 30, 2026 at 23:17:58 PDT
xrun(64): 25.09-s001: (c) Copyright 1995-2025 Cadence Design Systems, Inc.
Loading snapshot worklib.axi4l_subordinate_wrapper:sv .................... Done
SVSEED default: 1
xcelium> source /CMC/tools/cadence/XCELIUMMAIN25.09.001_lnx86/tools/xcelium/files/xmsimrc
xcelium> source /CMC/tools/cadence/XCELIUMMAIN25.09.001_lnx86/tools/methodology/UVM/CDNS-IEEE-20/additions/sv/files/tcl/uvm_sim.tcl
xcelium> run
UVM_INFO /CMC/tools/cadence/XCELIUMMAIN25.09.001_lnx86/tools/methodology/UVM/CDNS-IEEE-20/sv/src/base/uvm_root.svh(458) @ 0: reporter [UVM/RELNOTES] 
  ***********       IMPORTANT RELEASE NOTES         ************

  This implementation of the UVM Library deviates from the 1800.2-2020
  standard.  See the DEVIATIONS.md file contained in the release
  for more details.

----------------------------------------------------------------
Accellera:1800.2-2020:UVM:2.0

All copyright owners for this kit are listed in NOTICE.txt
All Rights Reserved Worldwide
----------------------------------------------------------------

      (Specify +UVM_NO_RELNOTES to turn off this notice)

UVM_INFO @ 0: reporter [RNTST] Running test supported_fields_test_norm5...
UVM_INFO ./uvm/tb/unit_tests/base_test.sv(20) @ 0: uvm_test_top [BASE_CFG] Configuring downstream_mode=UVM_ACTIVE
UVM_INFO ./uvm/axi4l_uvc/axi4l_subordinate_agent.sv(45) @ 0: uvm_test_top.env.downstream_agent [SUB_AGENT_BUILD] Subordinate agent sees is_active=UVM_ACTIVE
UVM_INFO /CMC/tools/cadence/XCELIUMMAIN25.09.001_lnx86/tools/methodology/UVM/CDNS-IEEE-20/sv/src/base/uvm_root.svh(653) @ 0: reporter [UVMTOP] UVM testbench topology:
-------------------------------------------------------------------------------------
Name                          Type                                   Size  Value     
-------------------------------------------------------------------------------------
<unnamed>                     uvm_root                               -     @2678     
  uvm_test_top                supported_fields_test_norm5            -     @3092     
    env                       axi4l_env                              -     @3306     
      downstream_agent        axi4l_subordinate_agent                -     @3383     
        monitor               axi4l_monitor                          -     @3293     
          read_ap             uvm_analysis_port                      -     @3813     
          write_ap            uvm_analysis_port                      -     @3848     
        read_driver           axi4l_read_driver                      -     @4362     
          rsp_port            uvm_analysis_port                      -     @4469     
          seq_item_port       uvm_seq_item_pull_port                 -     @4434     
        read_sequencer        axi4l_read_sequencer                   -     @3912     
          rsp_export          uvm_analysis_export                    -     @3955     
          seq_item_export     uvm_seq_item_pull_imp                  -     @4368     
          arbitration_queue   array                                  0     -         
          lock_queue          array                                  0     -         
          num_last_reqs       integral                               32    'd1       
          num_last_rsps       integral                               32    'd1       
        write_driver          axi4l_write_driver                     -     @4942     
          rsp_port            uvm_analysis_port                      -     @5046     
          seq_item_port       uvm_seq_item_pull_port                 -     @5012     
        write_sequencer       axi4l_write_sequencer                  -     @4501     
          rsp_export          uvm_analysis_export                    -     @4543     
          seq_item_export     uvm_seq_item_pull_imp                  -     @4947     
          arbitration_queue   array                                  0     -         
          lock_queue          array                                  0     -         
          num_last_reqs       integral                               32    'd1       
          num_last_rsps       integral                               32    'd1       
      read_protocol_cov       axi4l_read_protocol_coverage           -     @3415     
        analysis_imp          uvm_analysis_imp                       -     @3452     
      sb                      axi4l_sb                               -     @3591     
        downstream_read_imp   uvm_analysis_imp_downstream_read       -     @3675     
        downstream_write_imp  uvm_analysis_imp_downstream_write      -     @3743     
        upstream_read_imp     uvm_analysis_imp_upstream_read         -     @3640     
        upstream_write_imp    uvm_analysis_imp_upstream_write        -     @3709     
      upstream_agent          axi4l_manager_agent                    -     @3351     
        monitor               axi4l_monitor                          -     @5136     
          read_ap             uvm_analysis_port                      -     @5170     
          write_ap            uvm_analysis_port                      -     @5204     
        read_driver           axi4l_read_driver                      -     @5674     
          rsp_port            uvm_analysis_port                      -     @5777     
          seq_item_port       uvm_seq_item_pull_port                 -     @5743     
        read_sequencer        axi4l_read_sequencer                   -     @5200     
          rsp_export          uvm_analysis_export                    -     @5275     
          seq_item_export     uvm_seq_item_pull_imp                  -     @5679     
          arbitration_queue   array                                  0     -         
          lock_queue          array                                  0     -         
          num_last_reqs       integral                               32    'd1       
          num_last_rsps       integral                               32    'd1       
        write_driver          axi4l_write_driver                     -     @6248     
          rsp_port            uvm_analysis_port                      -     @6351     
          seq_item_port       uvm_seq_item_pull_port                 -     @6317     
        write_sequencer       axi4l_write_sequencer                  -     @5808     
          rsp_export          uvm_analysis_export                    -     @5849     
          seq_item_export     uvm_seq_item_pull_imp                  -     @6253     
          arbitration_queue   array                                  0     -         
          lock_queue          array                                  0     -         
          num_last_reqs       integral                               32    'd1       
          num_last_rsps       integral                               32    'd1       
        is_active             uvm_active_passive_enum                1     UVM_ACTIVE
      write_protocol_cov      axi4l_write_protocol_coverage          -     @3447     
        downstream_write_imp  uvm_analysis_imp_cov_downstream_write  -     @3559     
        upstream_write_imp    uvm_analysis_imp_cov_upstream_write    -     @3524     
-------------------------------------------------------------------------------------
UVM_INFO ./uvm/tb/unit_tests/norm_tests/supported_fields_test_norm5.sv(136) @ 0: uvm_test_top [NORM_05] Starting supported field combination test
UVM_INFO ./uvm/axi4l_uvc/sequences/axi4l_read_seq.sv(16) @ 0: uvm_test_top.env.upstream_agent.read_sequencer@@manager_read_seq [norm5_manager_read_seq] Upstream AXI4-Lite Read Sequence
UVM_INFO ./uvm/axi4l_uvc/sequences/axi4l_read_seq.sv(50) @ 0: uvm_test_top.env.downstream_agent.read_sequencer@@subordinate_read_seq [norm5_subordinate_read_seq] Downstream AXI4-Lite Read Sequence
SVA_COVER: PROT-01 downstream AR remained asserted through backpressure and completed
UVM_INFO ./uvm/tb/coverage/axi4l_read_protocol_coverage.sv(86) @ 75: uvm_test_top.env.read_protocol_cov [READ_COVERAGE] Sampled role=AXI4L_SUBORDINATE kind=READ_REQUEST addr=0x40008c98 prot=000
UVM_INFO ./uvm/axi4l_uvc/axi4l_read_driver.sv(321) @ 75: uvm_test_top.env.downstream_agent.read_driver [SUB_RD] Passed AR handshake
UVM_INFO ./uvm/axi4l_uvc/axi4l_read_driver.sv(336) @ 75: uvm_test_top.env.downstream_agent.read_driver [SUB_RD] Waiting rvalid_delay=3 cycles
UVM_INFO ./uvm/tb/coverage/axi4l_read_protocol_coverage.sv(86) @ 75: uvm_test_top.env.read_protocol_cov [READ_COVERAGE] Sampled role=AXI4L_MANAGER kind=READ_REQUEST addr=0x40008c98 prot=000
UVM_INFO ./uvm/axi4l_uvc/axi4l_read_driver.sv(341) @ 105: uvm_test_top.env.downstream_agent.read_driver [SUB_RD] Now asserting RVALID
UVM_INFO ./uvm/tb/coverage/axi4l_read_protocol_coverage.sv(116) @ 115: uvm_test_top.env.read_protocol_cov [READ_COVERAGE] Sampled role=AXI4L_SUBORDINATE kind=READ_RESPONSE data=0x0 resp=RESP_OKAY
UVM_INFO ./uvm/tb/coverage/axi4l_read_protocol_coverage.sv(116) @ 115: uvm_test_top.env.read_protocol_cov [READ_COVERAGE] Sampled role=AXI4L_MANAGER kind=READ_RESPONSE data=0x0 resp=RESP_OKAY
UVM_INFO ./uvm/axi4l_uvc/sequences/axi4l_read_seq.sv(16) @ 115: uvm_test_top.env.upstream_agent.read_sequencer@@manager_read_seq [norm5_manager_read_seq] Upstream AXI4-Lite Read Sequence
UVM_INFO ./uvm/axi4l_uvc/sequences/axi4l_read_seq.sv(50) @ 115: uvm_test_top.env.downstream_agent.read_sequencer@@subordinate_read_seq [norm5_subordinate_read_seq] Downstream AXI4-Lite Read Sequence
UVM_INFO ./uvm/tb/coverage/axi4l_read_protocol_coverage.sv(86) @ 175: uvm_test_top.env.read_protocol_cov [READ_COVERAGE] Sampled role=AXI4L_SUBORDINATE kind=READ_REQUEST addr=0x4000e168 prot=001
UVM_INFO ./uvm/axi4l_uvc/axi4l_read_driver.sv(321) @ 175: uvm_test_top.env.downstream_agent.read_driver [SUB_RD] Passed AR handshake
UVM_INFO ./uvm/axi4l_uvc/axi4l_read_driver.sv(336) @ 175: uvm_test_top.env.downstream_agent.read_driver [SUB_RD] Waiting rvalid_delay=0 cycles
UVM_INFO ./uvm/axi4l_uvc/axi4l_read_driver.sv(341) @ 175: uvm_test_top.env.downstream_agent.read_driver [SUB_RD] Now asserting RVALID
UVM_INFO ./uvm/tb/coverage/axi4l_read_protocol_coverage.sv(86) @ 175: uvm_test_top.env.read_protocol_cov [READ_COVERAGE] Sampled role=AXI4L_MANAGER kind=READ_REQUEST addr=0x4000e168 prot=001
UVM_INFO ./uvm/tb/coverage/axi4l_read_protocol_coverage.sv(116) @ 185: uvm_test_top.env.read_protocol_cov [READ_COVERAGE] Sampled role=AXI4L_SUBORDINATE kind=READ_RESPONSE data=0x0 resp=RESP_OKAY
UVM_INFO ./uvm/tb/coverage/axi4l_read_protocol_coverage.sv(116) @ 185: uvm_test_top.env.read_protocol_cov [READ_COVERAGE] Sampled role=AXI4L_MANAGER kind=READ_RESPONSE data=0x0 resp=RESP_OKAY
UVM_INFO ./uvm/axi4l_uvc/sequences/axi4l_read_seq.sv(16) @ 185: uvm_test_top.env.upstream_agent.read_sequencer@@manager_read_seq [norm5_manager_read_seq] Upstream AXI4-Lite Read Sequence
UVM_INFO ./uvm/axi4l_uvc/sequences/axi4l_read_seq.sv(50) @ 185: uvm_test_top.env.downstream_agent.read_sequencer@@subordinate_read_seq [norm5_subordinate_read_seq] Downstream AXI4-Lite Read Sequence
UVM_INFO ./uvm/tb/coverage/axi4l_read_protocol_coverage.sv(86) @ 245: uvm_test_top.env.read_protocol_cov [READ_COVERAGE] Sampled role=AXI4L_SUBORDINATE kind=READ_REQUEST addr=0x40008ac8 prot=010
UVM_INFO ./uvm/axi4l_uvc/axi4l_read_driver.sv(321) @ 245: uvm_test_top.env.downstream_agent.read_driver [SUB_RD] Passed AR handshake
UVM_INFO ./uvm/axi4l_uvc/axi4l_read_driver.sv(336) @ 245: uvm_test_top.env.downstream_agent.read_driver [SUB_RD] Waiting rvalid_delay=3 cycles
UVM_INFO ./uvm/tb/coverage/axi4l_read_protocol_coverage.sv(86) @ 245: uvm_test_top.env.read_protocol_cov [READ_COVERAGE] Sampled role=AXI4L_MANAGER kind=READ_REQUEST addr=0x40008ac8 prot=010
UVM_INFO ./uvm/axi4l_uvc/axi4l_read_driver.sv(341) @ 275: uvm_test_top.env.downstream_agent.read_driver [SUB_RD] Now asserting RVALID
UVM_INFO ./uvm/tb/coverage/axi4l_read_protocol_coverage.sv(116) @ 295: uvm_test_top.env.read_protocol_cov [READ_COVERAGE] Sampled role=AXI4L_SUBORDINATE kind=READ_RESPONSE data=0x0 resp=RESP_OKAY
UVM_INFO ./uvm/tb/coverage/axi4l_read_protocol_coverage.sv(116) @ 295: uvm_test_top.env.read_protocol_cov [READ_COVERAGE] Sampled role=AXI4L_MANAGER kind=READ_RESPONSE data=0x0 resp=RESP_OKAY
UVM_INFO ./uvm/axi4l_uvc/sequences/axi4l_read_seq.sv(16) @ 295: uvm_test_top.env.upstream_agent.read_sequencer@@manager_read_seq [norm5_manager_read_seq] Upstream AXI4-Lite Read Sequence
UVM_INFO ./uvm/axi4l_uvc/sequences/axi4l_read_seq.sv(50) @ 295: uvm_test_top.env.downstream_agent.read_sequencer@@subordinate_read_seq [norm5_subordinate_read_seq] Downstream AXI4-Lite Read Sequence
UVM_INFO ./uvm/tb/coverage/axi4l_read_protocol_coverage.sv(86) @ 355: uvm_test_top.env.read_protocol_cov [READ_COVERAGE] Sampled role=AXI4L_SUBORDINATE kind=READ_REQUEST addr=0x4000bd2c prot=011
UVM_INFO ./uvm/axi4l_uvc/axi4l_read_driver.sv(321) @ 355: uvm_test_top.env.downstream_agent.read_driver [SUB_RD] Passed AR handshake
UVM_INFO ./uvm/axi4l_uvc/axi4l_read_driver.sv(336) @ 355: uvm_test_top.env.downstream_agent.read_driver [SUB_RD] Waiting rvalid_delay=4 cycles
UVM_INFO ./uvm/tb/coverage/axi4l_read_protocol_coverage.sv(86) @ 355: uvm_test_top.env.read_protocol_cov [READ_COVERAGE] Sampled role=AXI4L_MANAGER kind=READ_REQUEST addr=0x4000bd2c prot=011
UVM_INFO ./uvm/axi4l_uvc/axi4l_read_driver.sv(341) @ 395: uvm_test_top.env.downstream_agent.read_driver [SUB_RD] Now asserting RVALID
UVM_INFO ./uvm/tb/coverage/axi4l_read_protocol_coverage.sv(116) @ 405: uvm_test_top.env.read_protocol_cov [READ_COVERAGE] Sampled role=AXI4L_SUBORDINATE kind=READ_RESPONSE data=0x0 resp=RESP_OKAY
UVM_INFO ./uvm/tb/coverage/axi4l_read_protocol_coverage.sv(116) @ 405: uvm_test_top.env.read_protocol_cov [READ_COVERAGE] Sampled role=AXI4L_MANAGER kind=READ_RESPONSE data=0x0 resp=RESP_OKAY
UVM_INFO ./uvm/axi4l_uvc/sequences/axi4l_read_seq.sv(16) @ 405: uvm_test_top.env.upstream_agent.read_sequencer@@manager_read_seq [norm5_manager_read_seq] Upstream AXI4-Lite Read Sequence
UVM_INFO ./uvm/axi4l_uvc/sequences/axi4l_read_seq.sv(50) @ 405: uvm_test_top.env.downstream_agent.read_sequencer@@subordinate_read_seq [norm5_subordinate_read_seq] Downstream AXI4-Lite Read Sequence
UVM_INFO ./uvm/tb/coverage/axi4l_read_protocol_coverage.sv(86) @ 445: uvm_test_top.env.read_protocol_cov [READ_COVERAGE] Sampled role=AXI4L_SUBORDINATE kind=READ_REQUEST addr=0x40000dbc prot=100
UVM_INFO ./uvm/axi4l_uvc/axi4l_read_driver.sv(321) @ 445: uvm_test_top.env.downstream_agent.read_driver [SUB_RD] Passed AR handshake
UVM_INFO ./uvm/axi4l_uvc/axi4l_read_driver.sv(336) @ 445: uvm_test_top.env.downstream_agent.read_driver [SUB_RD] Waiting rvalid_delay=4 cycles
UVM_INFO ./uvm/tb/coverage/axi4l_read_protocol_coverage.sv(86) @ 445: uvm_test_top.env.read_protocol_cov [READ_COVERAGE] Sampled role=AXI4L_MANAGER kind=READ_REQUEST addr=0x40000dbc prot=100
UVM_INFO ./uvm/axi4l_uvc/axi4l_read_driver.sv(341) @ 485: uvm_test_top.env.downstream_agent.read_driver [SUB_RD] Now asserting RVALID
UVM_INFO ./uvm/tb/coverage/axi4l_read_protocol_coverage.sv(116) @ 495: uvm_test_top.env.read_protocol_cov [READ_COVERAGE] Sampled role=AXI4L_SUBORDINATE kind=READ_RESPONSE data=0x0 resp=RESP_OKAY
UVM_INFO ./uvm/tb/coverage/axi4l_read_protocol_coverage.sv(116) @ 495: uvm_test_top.env.read_protocol_cov [READ_COVERAGE] Sampled role=AXI4L_MANAGER kind=READ_RESPONSE data=0x0 resp=RESP_OKAY
UVM_INFO ./uvm/axi4l_uvc/sequences/axi4l_read_seq.sv(16) @ 495: uvm_test_top.env.upstream_agent.read_sequencer@@manager_read_seq [norm5_manager_read_seq] Upstream AXI4-Lite Read Sequence
UVM_INFO ./uvm/axi4l_uvc/sequences/axi4l_read_seq.sv(50) @ 495: uvm_test_top.env.downstream_agent.read_sequencer@@subordinate_read_seq [norm5_subordinate_read_seq] Downstream AXI4-Lite Read Sequence
UVM_INFO ./uvm/tb/coverage/axi4l_read_protocol_coverage.sv(86) @ 565: uvm_test_top.env.read_protocol_cov [READ_COVERAGE] Sampled role=AXI4L_SUBORDINATE kind=READ_REQUEST addr=0x4000ad18 prot=101
UVM_INFO ./uvm/axi4l_uvc/axi4l_read_driver.sv(321) @ 565: uvm_test_top.env.downstream_agent.read_driver [SUB_RD] Passed AR handshake
UVM_INFO ./uvm/axi4l_uvc/axi4l_read_driver.sv(336) @ 565: uvm_test_top.env.downstream_agent.read_driver [SUB_RD] Waiting rvalid_delay=4 cycles
UVM_INFO ./uvm/tb/coverage/axi4l_read_protocol_coverage.sv(86) @ 565: uvm_test_top.env.read_protocol_cov [READ_COVERAGE] Sampled role=AXI4L_MANAGER kind=READ_REQUEST addr=0x4000ad18 prot=101
UVM_INFO ./uvm/axi4l_uvc/axi4l_read_driver.sv(341) @ 605: uvm_test_top.env.downstream_agent.read_driver [SUB_RD] Now asserting RVALID
UVM_INFO ./uvm/tb/coverage/axi4l_read_protocol_coverage.sv(116) @ 615: uvm_test_top.env.read_protocol_cov [READ_COVERAGE] Sampled role=AXI4L_SUBORDINATE kind=READ_RESPONSE data=0x0 resp=RESP_OKAY
UVM_INFO ./uvm/tb/coverage/axi4l_read_protocol_coverage.sv(116) @ 615: uvm_test_top.env.read_protocol_cov [READ_COVERAGE] Sampled role=AXI4L_MANAGER kind=READ_RESPONSE data=0x0 resp=RESP_OKAY
UVM_INFO ./uvm/axi4l_uvc/sequences/axi4l_read_seq.sv(16) @ 615: uvm_test_top.env.upstream_agent.read_sequencer@@manager_read_seq [norm5_manager_read_seq] Upstream AXI4-Lite Read Sequence
UVM_INFO ./uvm/axi4l_uvc/sequences/axi4l_read_seq.sv(50) @ 615: uvm_test_top.env.downstream_agent.read_sequencer@@subordinate_read_seq [norm5_subordinate_read_seq] Downstream AXI4-Lite Read Sequence
UVM_INFO ./uvm/tb/coverage/axi4l_read_protocol_coverage.sv(86) @ 695: uvm_test_top.env.read_protocol_cov [READ_COVERAGE] Sampled role=AXI4L_SUBORDINATE kind=READ_REQUEST addr=0x4000cf58 prot=110
UVM_INFO ./uvm/axi4l_uvc/axi4l_read_driver.sv(321) @ 695: uvm_test_top.env.downstream_agent.read_driver [SUB_RD] Passed AR handshake
UVM_INFO ./uvm/axi4l_uvc/axi4l_read_driver.sv(336) @ 695: uvm_test_top.env.downstream_agent.read_driver [SUB_RD] Waiting rvalid_delay=4 cycles
UVM_INFO ./uvm/tb/coverage/axi4l_read_protocol_coverage.sv(86) @ 695: uvm_test_top.env.read_protocol_cov [READ_COVERAGE] Sampled role=AXI4L_MANAGER kind=READ_REQUEST addr=0x4000cf58 prot=110
UVM_INFO ./uvm/axi4l_uvc/axi4l_read_driver.sv(341) @ 735: uvm_test_top.env.downstream_agent.read_driver [SUB_RD] Now asserting RVALID
UVM_INFO ./uvm/tb/coverage/axi4l_read_protocol_coverage.sv(116) @ 745: uvm_test_top.env.read_protocol_cov [READ_COVERAGE] Sampled role=AXI4L_SUBORDINATE kind=READ_RESPONSE data=0x0 resp=RESP_OKAY
UVM_INFO ./uvm/tb/coverage/axi4l_read_protocol_coverage.sv(116) @ 745: uvm_test_top.env.read_protocol_cov [READ_COVERAGE] Sampled role=AXI4L_MANAGER kind=READ_RESPONSE data=0x0 resp=RESP_OKAY
UVM_INFO ./uvm/axi4l_uvc/sequences/axi4l_read_seq.sv(16) @ 745: uvm_test_top.env.upstream_agent.read_sequencer@@manager_read_seq [norm5_manager_read_seq] Upstream AXI4-Lite Read Sequence
UVM_INFO ./uvm/axi4l_uvc/sequences/axi4l_read_seq.sv(50) @ 745: uvm_test_top.env.downstream_agent.read_sequencer@@subordinate_read_seq [norm5_subordinate_read_seq] Downstream AXI4-Lite Read Sequence
UVM_INFO ./uvm/tb/coverage/axi4l_read_protocol_coverage.sv(86) @ 815: uvm_test_top.env.read_protocol_cov [READ_COVERAGE] Sampled role=AXI4L_SUBORDINATE kind=READ_REQUEST addr=0x4000f404 prot=111
UVM_INFO ./uvm/axi4l_uvc/axi4l_read_driver.sv(321) @ 815: uvm_test_top.env.downstream_agent.read_driver [SUB_RD] Passed AR handshake
UVM_INFO ./uvm/axi4l_uvc/axi4l_read_driver.sv(336) @ 815: uvm_test_top.env.downstream_agent.read_driver [SUB_RD] Waiting rvalid_delay=0 cycles
UVM_INFO ./uvm/axi4l_uvc/axi4l_read_driver.sv(341) @ 815: uvm_test_top.env.downstream_agent.read_driver [SUB_RD] Now asserting RVALID
UVM_INFO ./uvm/tb/coverage/axi4l_read_protocol_coverage.sv(86) @ 815: uvm_test_top.env.read_protocol_cov [READ_COVERAGE] Sampled role=AXI4L_MANAGER kind=READ_REQUEST addr=0x4000f404 prot=111
SVA_COVER: PROT-02 upstream read response remained asserted through backpressure and completed
UVM_INFO ./uvm/tb/coverage/axi4l_read_protocol_coverage.sv(116) @ 875: uvm_test_top.env.read_protocol_cov [READ_COVERAGE] Sampled role=AXI4L_SUBORDINATE kind=READ_RESPONSE data=0x0 resp=RESP_OKAY
UVM_INFO ./uvm/tb/coverage/axi4l_read_protocol_coverage.sv(116) @ 875: uvm_test_top.env.read_protocol_cov [READ_COVERAGE] Sampled role=AXI4L_MANAGER kind=READ_RESPONSE data=0x0 resp=RESP_OKAY
UVM_INFO ./uvm/axi4l_uvc/sequences/axi4l_write_seq.sv(15) @ 875: uvm_test_top.env.upstream_agent.write_sequencer@@manager_write_seq [norm5_manager_write_seq] Upstream AXI4-Lite write Sequence
UVM_INFO ./uvm/axi4l_uvc/sequences/axi4l_write_seq.sv(51) @ 875: uvm_test_top.env.downstream_agent.write_sequencer@@subordinate_write_seq [norm5_subordinate_write_seq] Downstream AXI4-Lite write Sequence
UVM_INFO ./uvm/axi4l_uvc/axi4l_write_driver.sv(413) @ 895: uvm_test_top.env.upstream_agent.write_driver [MGR_WR] Upstream AW handshake completed at 895
WDT04_DEBUG: WVALID arrived with sampled w_timer=0, TIMEOUT_CYCLES=256
SVA_COVER: PROT-06 downstream AW/W launched together when delayed W became available
SVA_COVER: PROT-03 downstream AW remained asserted through backpressure and completed
SVA_COVER: PROT-04 downstream W remained asserted through backpressure and completed
UVM_INFO ./uvm/axi4l_uvc/axi4l_write_driver.sv(556) @ 935: uvm_test_top.env.downstream_agent.write_driver [SUB_WR] Passed AW/W handshakes
UVM_INFO ./uvm/axi4l_uvc/axi4l_write_driver.sv(619) @ 935: uvm_test_top.env.downstream_agent.write_driver [SUB_WR] Waiting bvalid_delay=2 cycles
UVM_INFO ./uvm/axi4l_uvc/axi4l_write_driver.sv(443) @ 935: uvm_test_top.env.upstream_agent.write_driver [MGR_WR] Upstream W handshake completed at 935
UVM_INFO ./uvm/axi4l_uvc/axi4l_write_driver.sv(460) @ 935: uvm_test_top.env.upstream_agent.write_driver [MGR_WR] Upstream AW/W completed at 935; bready_delay=0
UVM_INFO ./uvm/axi4l_uvc/axi4l_write_driver.sv(476) @ 935: uvm_test_top.env.upstream_agent.write_driver [MGR_WR] Now asserting upstream BREADY at 935
UVM_INFO ./uvm/axi4l_uvc/axi4l_write_driver.sv(630) @ 955: uvm_test_top.env.downstream_agent.write_driver [SUB_WR] Now asserting BVALID
WRT06_DEBUG: BVALID arrived with sampled b_timer=2, TIMEOUT_CYCLES=256
UVM_INFO ./uvm/axi4l_uvc/sequences/axi4l_write_seq.sv(15) @ 965: uvm_test_top.env.upstream_agent.write_sequencer@@manager_write_seq [norm5_manager_write_seq] Upstream AXI4-Lite write Sequence
UVM_INFO ./uvm/axi4l_uvc/sequences/axi4l_write_seq.sv(51) @ 965: uvm_test_top.env.downstream_agent.write_sequencer@@subordinate_write_seq [norm5_subordinate_write_seq] Downstream AXI4-Lite write Sequence
UVM_INFO ./uvm/axi4l_uvc/axi4l_write_driver.sv(413) @ 975: uvm_test_top.env.upstream_agent.write_driver [MGR_WR] Upstream AW handshake completed at 975
SVA_COVER: WDT-06 AW-only write contained upstream
SVA_COVER: PROT-06 accepted upstream AW was held while waiting for corresponding W
UVM_INFO ./uvm/axi4l_uvc/axi4l_write_driver.sv(556) @ 1025: uvm_test_top.env.downstream_agent.write_driver [SUB_WR] Passed AW/W handshakes
UVM_INFO ./uvm/axi4l_uvc/axi4l_write_driver.sv(619) @ 1025: uvm_test_top.env.downstream_agent.write_driver [SUB_WR] Waiting bvalid_delay=1 cycles
UVM_INFO ./uvm/axi4l_uvc/axi4l_write_driver.sv(443) @ 1025: uvm_test_top.env.upstream_agent.write_driver [MGR_WR] Upstream W handshake completed at 1025
UVM_INFO ./uvm/axi4l_uvc/axi4l_write_driver.sv(460) @ 1025: uvm_test_top.env.upstream_agent.write_driver [MGR_WR] Upstream AW/W completed at 1025; bready_delay=2
UVM_INFO ./uvm/axi4l_uvc/axi4l_write_driver.sv(630) @ 1035: uvm_test_top.env.downstream_agent.write_driver [SUB_WR] Now asserting BVALID
UVM_INFO ./uvm/axi4l_uvc/axi4l_write_driver.sv(476) @ 1045: uvm_test_top.env.upstream_agent.write_driver [MGR_WR] Now asserting upstream BREADY at 1045
UVM_INFO ./uvm/axi4l_uvc/sequences/axi4l_write_seq.sv(15) @ 1055: uvm_test_top.env.upstream_agent.write_sequencer@@manager_write_seq [norm5_manager_write_seq] Upstream AXI4-Lite write Sequence
UVM_INFO ./uvm/axi4l_uvc/sequences/axi4l_write_seq.sv(51) @ 1055: uvm_test_top.env.downstream_agent.write_sequencer@@subordinate_write_seq [norm5_subordinate_write_seq] Downstream AXI4-Lite write Sequence
UVM_INFO ./uvm/axi4l_uvc/axi4l_write_driver.sv(413) @ 1085: uvm_test_top.env.upstream_agent.write_driver [MGR_WR] Upstream AW handshake completed at 1085
SVA_COVER: PROT-05 early upstream W was withheld until the corresponding AW was accepted
UVM_INFO ./uvm/axi4l_uvc/axi4l_write_driver.sv(556) @ 1105: uvm_test_top.env.downstream_agent.write_driver [SUB_WR] Passed AW/W handshakes
UVM_INFO ./uvm/axi4l_uvc/axi4l_write_driver.sv(619) @ 1105: uvm_test_top.env.downstream_agent.write_driver [SUB_WR] Waiting bvalid_delay=2 cycles
UVM_INFO ./uvm/axi4l_uvc/axi4l_write_driver.sv(443) @ 1105: uvm_test_top.env.upstream_agent.write_driver [MGR_WR] Upstream W handshake completed at 1105
UVM_INFO ./uvm/axi4l_uvc/axi4l_write_driver.sv(460) @ 1105: uvm_test_top.env.upstream_agent.write_driver [MGR_WR] Upstream AW/W completed at 1105; bready_delay=1
UVM_INFO ./uvm/axi4l_uvc/axi4l_write_driver.sv(476) @ 1115: uvm_test_top.env.upstream_agent.write_driver [MGR_WR] Now asserting upstream BREADY at 1115
UVM_INFO ./uvm/axi4l_uvc/axi4l_write_driver.sv(630) @ 1125: uvm_test_top.env.downstream_agent.write_driver [SUB_WR] Now asserting BVALID
UVM_INFO ./uvm/axi4l_uvc/sequences/axi4l_write_seq.sv(15) @ 1135: uvm_test_top.env.upstream_agent.write_sequencer@@manager_write_seq [norm5_manager_write_seq] Upstream AXI4-Lite write Sequence
UVM_INFO ./uvm/axi4l_uvc/sequences/axi4l_write_seq.sv(51) @ 1135: uvm_test_top.env.downstream_agent.write_sequencer@@subordinate_write_seq [norm5_subordinate_write_seq] Downstream AXI4-Lite write Sequence
UVM_INFO ./uvm/axi4l_uvc/axi4l_write_driver.sv(413) @ 1175: uvm_test_top.env.upstream_agent.write_driver [MGR_WR] Upstream AW handshake completed at 1175
UVM_INFO ./uvm/axi4l_uvc/axi4l_write_driver.sv(556) @ 1185: uvm_test_top.env.downstream_agent.write_driver [SUB_WR] Passed AW/W handshakes
UVM_INFO ./uvm/axi4l_uvc/axi4l_write_driver.sv(619) @ 1185: uvm_test_top.env.downstream_agent.write_driver [SUB_WR] Waiting bvalid_delay=3 cycles
UVM_INFO ./uvm/axi4l_uvc/axi4l_write_driver.sv(443) @ 1185: uvm_test_top.env.upstream_agent.write_driver [MGR_WR] Upstream W handshake completed at 1185
UVM_INFO ./uvm/axi4l_uvc/axi4l_write_driver.sv(460) @ 1185: uvm_test_top.env.upstream_agent.write_driver [MGR_WR] Upstream AW/W completed at 1185; bready_delay=4
UVM_INFO ./uvm/axi4l_uvc/axi4l_write_driver.sv(630) @ 1215: uvm_test_top.env.downstream_agent.write_driver [SUB_WR] Now asserting BVALID
UVM_INFO ./uvm/axi4l_uvc/axi4l_write_driver.sv(476) @ 1225: uvm_test_top.env.upstream_agent.write_driver [MGR_WR] Now asserting upstream BREADY at 1225
UVM_INFO ./uvm/axi4l_uvc/sequences/axi4l_write_seq.sv(15) @ 1235: uvm_test_top.env.upstream_agent.write_sequencer@@manager_write_seq [norm5_manager_write_seq] Upstream AXI4-Lite write Sequence
UVM_INFO ./uvm/axi4l_uvc/sequences/axi4l_write_seq.sv(51) @ 1235: uvm_test_top.env.downstream_agent.write_sequencer@@subordinate_write_seq [norm5_subordinate_write_seq] Downstream AXI4-Lite write Sequence
UVM_INFO ./uvm/axi4l_uvc/axi4l_write_driver.sv(413) @ 1245: uvm_test_top.env.upstream_agent.write_driver [MGR_WR] Upstream AW handshake completed at 1245
UVM_INFO ./uvm/axi4l_uvc/axi4l_write_driver.sv(556) @ 1295: uvm_test_top.env.downstream_agent.write_driver [SUB_WR] Passed AW/W handshakes
UVM_INFO ./uvm/axi4l_uvc/axi4l_write_driver.sv(619) @ 1295: uvm_test_top.env.downstream_agent.write_driver [SUB_WR] Waiting bvalid_delay=2 cycles
UVM_INFO ./uvm/axi4l_uvc/axi4l_write_driver.sv(443) @ 1295: uvm_test_top.env.upstream_agent.write_driver [MGR_WR] Upstream W handshake completed at 1295
UVM_INFO ./uvm/axi4l_uvc/axi4l_write_driver.sv(460) @ 1295: uvm_test_top.env.upstream_agent.write_driver [MGR_WR] Upstream AW/W completed at 1295; bready_delay=2
UVM_INFO ./uvm/axi4l_uvc/axi4l_write_driver.sv(630) @ 1315: uvm_test_top.env.downstream_agent.write_driver [SUB_WR] Now asserting BVALID
UVM_INFO ./uvm/axi4l_uvc/axi4l_write_driver.sv(476) @ 1315: uvm_test_top.env.upstream_agent.write_driver [MGR_WR] Now asserting upstream BREADY at 1315
UVM_INFO ./uvm/axi4l_uvc/sequences/axi4l_write_seq.sv(15) @ 1325: uvm_test_top.env.upstream_agent.write_sequencer@@manager_write_seq [norm5_manager_write_seq] Upstream AXI4-Lite write Sequence
UVM_INFO ./uvm/axi4l_uvc/sequences/axi4l_write_seq.sv(51) @ 1325: uvm_test_top.env.downstream_agent.write_sequencer@@subordinate_write_seq [norm5_subordinate_write_seq] Downstream AXI4-Lite write Sequence
UVM_INFO ./uvm/axi4l_uvc/axi4l_write_driver.sv(413) @ 1375: uvm_test_top.env.upstream_agent.write_driver [MGR_WR] Upstream AW handshake completed at 1375
UVM_INFO ./uvm/axi4l_uvc/axi4l_write_driver.sv(556) @ 1385: uvm_test_top.env.downstream_agent.write_driver [SUB_WR] Passed AW/W handshakes
UVM_INFO ./uvm/axi4l_uvc/axi4l_write_driver.sv(619) @ 1385: uvm_test_top.env.downstream_agent.write_driver [SUB_WR] Waiting bvalid_delay=4 cycles
UVM_INFO ./uvm/axi4l_uvc/axi4l_write_driver.sv(443) @ 1385: uvm_test_top.env.upstream_agent.write_driver [MGR_WR] Upstream W handshake completed at 1385
UVM_INFO ./uvm/axi4l_uvc/axi4l_write_driver.sv(460) @ 1385: uvm_test_top.env.upstream_agent.write_driver [MGR_WR] Upstream AW/W completed at 1385; bready_delay=3
UVM_INFO ./uvm/axi4l_uvc/axi4l_write_driver.sv(476) @ 1415: uvm_test_top.env.upstream_agent.write_driver [MGR_WR] Now asserting upstream BREADY at 1415
UVM_INFO ./uvm/axi4l_uvc/axi4l_write_driver.sv(630) @ 1425: uvm_test_top.env.downstream_agent.write_driver [SUB_WR] Now asserting BVALID
UVM_INFO ./uvm/axi4l_uvc/sequences/axi4l_write_seq.sv(15) @ 1435: uvm_test_top.env.upstream_agent.write_sequencer@@manager_write_seq [norm5_manager_write_seq] Upstream AXI4-Lite write Sequence
UVM_INFO ./uvm/axi4l_uvc/sequences/axi4l_write_seq.sv(51) @ 1435: uvm_test_top.env.downstream_agent.write_sequencer@@subordinate_write_seq [norm5_subordinate_write_seq] Downstream AXI4-Lite write Sequence
UVM_INFO ./uvm/axi4l_uvc/axi4l_write_driver.sv(413) @ 1485: uvm_test_top.env.upstream_agent.write_driver [MGR_WR] Upstream AW handshake completed at 1485
UVM_INFO ./uvm/axi4l_uvc/axi4l_write_driver.sv(556) @ 1495: uvm_test_top.env.downstream_agent.write_driver [SUB_WR] Passed AW/W handshakes
UVM_INFO ./uvm/axi4l_uvc/axi4l_write_driver.sv(619) @ 1495: uvm_test_top.env.downstream_agent.write_driver [SUB_WR] Waiting bvalid_delay=4 cycles
UVM_INFO ./uvm/axi4l_uvc/axi4l_write_driver.sv(443) @ 1495: uvm_test_top.env.upstream_agent.write_driver [MGR_WR] Upstream W handshake completed at 1495
UVM_INFO ./uvm/axi4l_uvc/axi4l_write_driver.sv(460) @ 1495: uvm_test_top.env.upstream_agent.write_driver [MGR_WR] Upstream AW/W completed at 1495; bready_delay=1
UVM_INFO ./uvm/axi4l_uvc/axi4l_write_driver.sv(476) @ 1505: uvm_test_top.env.upstream_agent.write_driver [MGR_WR] Now asserting upstream BREADY at 1505
UVM_INFO ./uvm/axi4l_uvc/axi4l_write_driver.sv(630) @ 1535: uvm_test_top.env.downstream_agent.write_driver [SUB_WR] Now asserting BVALID
UVM_INFO ./uvm/axi4l_uvc/sequences/axi4l_write_seq.sv(15) @ 1545: uvm_test_top.env.upstream_agent.write_sequencer@@manager_write_seq [norm5_manager_write_seq] Upstream AXI4-Lite write Sequence
UVM_INFO ./uvm/axi4l_uvc/sequences/axi4l_write_seq.sv(51) @ 1545: uvm_test_top.env.downstream_agent.write_sequencer@@subordinate_write_seq [norm5_subordinate_write_seq] Downstream AXI4-Lite write Sequence
UVM_INFO ./uvm/axi4l_uvc/axi4l_write_driver.sv(413) @ 1575: uvm_test_top.env.upstream_agent.write_driver [MGR_WR] Upstream AW handshake completed at 1575
UVM_INFO ./uvm/axi4l_uvc/axi4l_write_driver.sv(556) @ 1595: uvm_test_top.env.downstream_agent.write_driver [SUB_WR] Passed AW/W handshakes
UVM_INFO ./uvm/axi4l_uvc/axi4l_write_driver.sv(619) @ 1595: uvm_test_top.env.downstream_agent.write_driver [SUB_WR] Waiting bvalid_delay=4 cycles
UVM_INFO ./uvm/axi4l_uvc/axi4l_write_driver.sv(443) @ 1595: uvm_test_top.env.upstream_agent.write_driver [MGR_WR] Upstream W handshake completed at 1595
UVM_INFO ./uvm/axi4l_uvc/axi4l_write_driver.sv(460) @ 1595: uvm_test_top.env.upstream_agent.write_driver [MGR_WR] Upstream AW/W completed at 1595; bready_delay=1
UVM_INFO ./uvm/axi4l_uvc/axi4l_write_driver.sv(476) @ 1605: uvm_test_top.env.upstream_agent.write_driver [MGR_WR] Now asserting upstream BREADY at 1605
UVM_INFO ./uvm/axi4l_uvc/axi4l_write_driver.sv(630) @ 1635: uvm_test_top.env.downstream_agent.write_driver [SUB_WR] Now asserting BVALID
UVM_INFO ./uvm/axi4l_uvc/sequences/axi4l_write_seq.sv(15) @ 1645: uvm_test_top.env.upstream_agent.write_sequencer@@manager_write_seq [norm5_manager_write_seq] Upstream AXI4-Lite write Sequence
UVM_INFO ./uvm/axi4l_uvc/sequences/axi4l_write_seq.sv(51) @ 1645: uvm_test_top.env.downstream_agent.write_sequencer@@subordinate_write_seq [norm5_subordinate_write_seq] Downstream AXI4-Lite write Sequence
UVM_INFO ./uvm/axi4l_uvc/axi4l_write_driver.sv(413) @ 1655: uvm_test_top.env.upstream_agent.write_driver [MGR_WR] Upstream AW handshake completed at 1655
UVM_INFO ./uvm/axi4l_uvc/axi4l_write_driver.sv(556) @ 1705: uvm_test_top.env.downstream_agent.write_driver [SUB_WR] Passed AW/W handshakes
UVM_INFO ./uvm/axi4l_uvc/axi4l_write_driver.sv(619) @ 1705: uvm_test_top.env.downstream_agent.write_driver [SUB_WR] Waiting bvalid_delay=2 cycles
UVM_INFO ./uvm/axi4l_uvc/axi4l_write_driver.sv(443) @ 1705: uvm_test_top.env.upstream_agent.write_driver [MGR_WR] Upstream W handshake completed at 1705
UVM_INFO ./uvm/axi4l_uvc/axi4l_write_driver.sv(460) @ 1705: uvm_test_top.env.upstream_agent.write_driver [MGR_WR] Upstream AW/W completed at 1705; bready_delay=4
UVM_INFO ./uvm/axi4l_uvc/axi4l_write_driver.sv(630) @ 1725: uvm_test_top.env.downstream_agent.write_driver [SUB_WR] Now asserting BVALID
UVM_INFO ./uvm/axi4l_uvc/axi4l_write_driver.sv(476) @ 1745: uvm_test_top.env.upstream_agent.write_driver [MGR_WR] Now asserting upstream BREADY at 1745
SVA_COVER: PROT-07 upstream write response remained asserted through backpressure and completed
UVM_INFO ./uvm/axi4l_uvc/sequences/axi4l_write_seq.sv(15) @ 1755: uvm_test_top.env.upstream_agent.write_sequencer@@manager_write_seq [norm5_manager_write_seq] Upstream AXI4-Lite write Sequence
UVM_INFO ./uvm/axi4l_uvc/sequences/axi4l_write_seq.sv(51) @ 1755: uvm_test_top.env.downstream_agent.write_sequencer@@subordinate_write_seq [norm5_subordinate_write_seq] Downstream AXI4-Lite write Sequence
UVM_INFO ./uvm/axi4l_uvc/axi4l_write_driver.sv(413) @ 1775: uvm_test_top.env.upstream_agent.write_driver [MGR_WR] Upstream AW handshake completed at 1775
UVM_INFO ./uvm/axi4l_uvc/axi4l_write_driver.sv(556) @ 1815: uvm_test_top.env.downstream_agent.write_driver [SUB_WR] Passed AW/W handshakes
UVM_INFO ./uvm/axi4l_uvc/axi4l_write_driver.sv(619) @ 1815: uvm_test_top.env.downstream_agent.write_driver [SUB_WR] Waiting bvalid_delay=3 cycles
UVM_INFO ./uvm/axi4l_uvc/axi4l_write_driver.sv(443) @ 1815: uvm_test_top.env.upstream_agent.write_driver [MGR_WR] Upstream W handshake completed at 1815
UVM_INFO ./uvm/axi4l_uvc/axi4l_write_driver.sv(460) @ 1815: uvm_test_top.env.upstream_agent.write_driver [MGR_WR] Upstream AW/W completed at 1815; bready_delay=3
UVM_INFO ./uvm/axi4l_uvc/axi4l_write_driver.sv(630) @ 1845: uvm_test_top.env.downstream_agent.write_driver [SUB_WR] Now asserting BVALID
UVM_INFO ./uvm/axi4l_uvc/axi4l_write_driver.sv(476) @ 1845: uvm_test_top.env.upstream_agent.write_driver [MGR_WR] Now asserting upstream BREADY at 1845
UVM_INFO ./uvm/axi4l_uvc/sequences/axi4l_write_seq.sv(15) @ 1855: uvm_test_top.env.upstream_agent.write_sequencer@@manager_write_seq [norm5_manager_write_seq] Upstream AXI4-Lite write Sequence
UVM_INFO ./uvm/axi4l_uvc/sequences/axi4l_write_seq.sv(51) @ 1855: uvm_test_top.env.downstream_agent.write_sequencer@@subordinate_write_seq [norm5_subordinate_write_seq] Downstream AXI4-Lite write Sequence
UVM_INFO ./uvm/axi4l_uvc/axi4l_write_driver.sv(413) @ 1915: uvm_test_top.env.upstream_agent.write_driver [MGR_WR] Upstream AW handshake completed at 1915
UVM_INFO ./uvm/axi4l_uvc/axi4l_write_driver.sv(556) @ 1925: uvm_test_top.env.downstream_agent.write_driver [SUB_WR] Passed AW/W handshakes
UVM_INFO ./uvm/axi4l_uvc/axi4l_write_driver.sv(619) @ 1925: uvm_test_top.env.downstream_agent.write_driver [SUB_WR] Waiting bvalid_delay=1 cycles
UVM_INFO ./uvm/axi4l_uvc/axi4l_write_driver.sv(443) @ 1925: uvm_test_top.env.upstream_agent.write_driver [MGR_WR] Upstream W handshake completed at 1925
UVM_INFO ./uvm/axi4l_uvc/axi4l_write_driver.sv(460) @ 1925: uvm_test_top.env.upstream_agent.write_driver [MGR_WR] Upstream AW/W completed at 1925; bready_delay=5
UVM_INFO ./uvm/axi4l_uvc/axi4l_write_driver.sv(630) @ 1935: uvm_test_top.env.downstream_agent.write_driver [SUB_WR] Now asserting BVALID
UVM_INFO ./uvm/axi4l_uvc/axi4l_write_driver.sv(476) @ 1975: uvm_test_top.env.upstream_agent.write_driver [MGR_WR] Now asserting upstream BREADY at 1975
UVM_INFO ./uvm/axi4l_uvc/sequences/axi4l_write_seq.sv(15) @ 1985: uvm_test_top.env.upstream_agent.write_sequencer@@manager_write_seq [norm5_manager_write_seq] Upstream AXI4-Lite write Sequence
UVM_INFO ./uvm/axi4l_uvc/sequences/axi4l_write_seq.sv(51) @ 1985: uvm_test_top.env.downstream_agent.write_sequencer@@subordinate_write_seq [norm5_subordinate_write_seq] Downstream AXI4-Lite write Sequence
UVM_INFO ./uvm/axi4l_uvc/axi4l_write_driver.sv(413) @ 2035: uvm_test_top.env.upstream_agent.write_driver [MGR_WR] Upstream AW handshake completed at 2035
UVM_INFO ./uvm/axi4l_uvc/axi4l_write_driver.sv(556) @ 2045: uvm_test_top.env.downstream_agent.write_driver [SUB_WR] Passed AW/W handshakes
UVM_INFO ./uvm/axi4l_uvc/axi4l_write_driver.sv(619) @ 2045: uvm_test_top.env.downstream_agent.write_driver [SUB_WR] Waiting bvalid_delay=0 cycles
UVM_INFO ./uvm/axi4l_uvc/axi4l_write_driver.sv(630) @ 2045: uvm_test_top.env.downstream_agent.write_driver [SUB_WR] Now asserting BVALID
UVM_INFO ./uvm/axi4l_uvc/axi4l_write_driver.sv(443) @ 2045: uvm_test_top.env.upstream_agent.write_driver [MGR_WR] Upstream W handshake completed at 2045
UVM_INFO ./uvm/axi4l_uvc/axi4l_write_driver.sv(460) @ 2045: uvm_test_top.env.upstream_agent.write_driver [MGR_WR] Upstream AW/W completed at 2045; bready_delay=5
UVM_INFO ./uvm/axi4l_uvc/axi4l_write_driver.sv(476) @ 2095: uvm_test_top.env.upstream_agent.write_driver [MGR_WR] Now asserting upstream BREADY at 2095
UVM_INFO ./uvm/axi4l_uvc/sequences/axi4l_write_seq.sv(15) @ 2105: uvm_test_top.env.upstream_agent.write_sequencer@@manager_write_seq [norm5_manager_write_seq] Upstream AXI4-Lite write Sequence
UVM_INFO ./uvm/axi4l_uvc/sequences/axi4l_write_seq.sv(51) @ 2105: uvm_test_top.env.downstream_agent.write_sequencer@@subordinate_write_seq [norm5_subordinate_write_seq] Downstream AXI4-Lite write Sequence
UVM_INFO ./uvm/axi4l_uvc/axi4l_write_driver.sv(413) @ 2155: uvm_test_top.env.upstream_agent.write_driver [MGR_WR] Upstream AW handshake completed at 2155
UVM_INFO ./uvm/axi4l_uvc/axi4l_write_driver.sv(556) @ 2165: uvm_test_top.env.downstream_agent.write_driver [SUB_WR] Passed AW/W handshakes
UVM_INFO ./uvm/axi4l_uvc/axi4l_write_driver.sv(619) @ 2165: uvm_test_top.env.downstream_agent.write_driver [SUB_WR] Waiting bvalid_delay=0 cycles
UVM_INFO ./uvm/axi4l_uvc/axi4l_write_driver.sv(630) @ 2165: uvm_test_top.env.downstream_agent.write_driver [SUB_WR] Now asserting BVALID
UVM_INFO ./uvm/axi4l_uvc/axi4l_write_driver.sv(443) @ 2165: uvm_test_top.env.upstream_agent.write_driver [MGR_WR] Upstream W handshake completed at 2165
UVM_INFO ./uvm/axi4l_uvc/axi4l_write_driver.sv(460) @ 2165: uvm_test_top.env.upstream_agent.write_driver [MGR_WR] Upstream AW/W completed at 2165; bready_delay=4
UVM_INFO ./uvm/axi4l_uvc/axi4l_write_driver.sv(476) @ 2205: uvm_test_top.env.upstream_agent.write_driver [MGR_WR] Now asserting upstream BREADY at 2205
UVM_INFO ./uvm/axi4l_uvc/sequences/axi4l_write_seq.sv(15) @ 2215: uvm_test_top.env.upstream_agent.write_sequencer@@manager_write_seq [norm5_manager_write_seq] Upstream AXI4-Lite write Sequence
UVM_INFO ./uvm/axi4l_uvc/sequences/axi4l_write_seq.sv(51) @ 2215: uvm_test_top.env.downstream_agent.write_sequencer@@subordinate_write_seq [norm5_subordinate_write_seq] Downstream AXI4-Lite write Sequence
UVM_INFO ./uvm/axi4l_uvc/axi4l_write_driver.sv(413) @ 2225: uvm_test_top.env.upstream_agent.write_driver [MGR_WR] Upstream AW handshake completed at 2225
UVM_INFO ./uvm/axi4l_uvc/axi4l_write_driver.sv(556) @ 2265: uvm_test_top.env.downstream_agent.write_driver [SUB_WR] Passed AW/W handshakes
UVM_INFO ./uvm/axi4l_uvc/axi4l_write_driver.sv(619) @ 2265: uvm_test_top.env.downstream_agent.write_driver [SUB_WR] Waiting bvalid_delay=0 cycles
UVM_INFO ./uvm/axi4l_uvc/axi4l_write_driver.sv(630) @ 2265: uvm_test_top.env.downstream_agent.write_driver [SUB_WR] Now asserting BVALID
UVM_INFO ./uvm/axi4l_uvc/axi4l_write_driver.sv(443) @ 2265: uvm_test_top.env.upstream_agent.write_driver [MGR_WR] Upstream W handshake completed at 2265
UVM_INFO ./uvm/axi4l_uvc/axi4l_write_driver.sv(460) @ 2265: uvm_test_top.env.upstream_agent.write_driver [MGR_WR] Upstream AW/W completed at 2265; bready_delay=2
UVM_INFO ./uvm/axi4l_uvc/axi4l_write_driver.sv(476) @ 2285: uvm_test_top.env.upstream_agent.write_driver [MGR_WR] Now asserting upstream BREADY at 2285
UVM_INFO ./uvm/axi4l_uvc/sequences/axi4l_write_seq.sv(15) @ 2295: uvm_test_top.env.upstream_agent.write_sequencer@@manager_write_seq [norm5_manager_write_seq] Upstream AXI4-Lite write Sequence
UVM_INFO ./uvm/axi4l_uvc/sequences/axi4l_write_seq.sv(51) @ 2295: uvm_test_top.env.downstream_agent.write_sequencer@@subordinate_write_seq [norm5_subordinate_write_seq] Downstream AXI4-Lite write Sequence
UVM_INFO ./uvm/axi4l_uvc/axi4l_write_driver.sv(413) @ 2345: uvm_test_top.env.upstream_agent.write_driver [MGR_WR] Upstream AW handshake completed at 2345
UVM_INFO ./uvm/axi4l_uvc/axi4l_write_driver.sv(556) @ 2355: uvm_test_top.env.downstream_agent.write_driver [SUB_WR] Passed AW/W handshakes
UVM_INFO ./uvm/axi4l_uvc/axi4l_write_driver.sv(619) @ 2355: uvm_test_top.env.downstream_agent.write_driver [SUB_WR] Waiting bvalid_delay=4 cycles
UVM_INFO ./uvm/axi4l_uvc/axi4l_write_driver.sv(443) @ 2355: uvm_test_top.env.upstream_agent.write_driver [MGR_WR] Upstream W handshake completed at 2355
UVM_INFO ./uvm/axi4l_uvc/axi4l_write_driver.sv(460) @ 2355: uvm_test_top.env.upstream_agent.write_driver [MGR_WR] Upstream AW/W completed at 2355; bready_delay=2
UVM_INFO ./uvm/axi4l_uvc/axi4l_write_driver.sv(476) @ 2375: uvm_test_top.env.upstream_agent.write_driver [MGR_WR] Now asserting upstream BREADY at 2375
UVM_INFO ./uvm/axi4l_uvc/axi4l_write_driver.sv(630) @ 2395: uvm_test_top.env.downstream_agent.write_driver [SUB_WR] Now asserting BVALID
UVM_INFO ./uvm/axi4l_uvc/sequences/axi4l_write_seq.sv(15) @ 2405: uvm_test_top.env.upstream_agent.write_sequencer@@manager_write_seq [norm5_manager_write_seq] Upstream AXI4-Lite write Sequence
UVM_INFO ./uvm/axi4l_uvc/sequences/axi4l_write_seq.sv(51) @ 2405: uvm_test_top.env.downstream_agent.write_sequencer@@subordinate_write_seq [norm5_subordinate_write_seq] Downstream AXI4-Lite write Sequence
UVM_INFO ./uvm/axi4l_uvc/axi4l_write_driver.sv(413) @ 2465: uvm_test_top.env.upstream_agent.write_driver [MGR_WR] Upstream AW handshake completed at 2465
UVM_INFO ./uvm/axi4l_uvc/axi4l_write_driver.sv(556) @ 2475: uvm_test_top.env.downstream_agent.write_driver [SUB_WR] Passed AW/W handshakes
UVM_INFO ./uvm/axi4l_uvc/axi4l_write_driver.sv(619) @ 2475: uvm_test_top.env.downstream_agent.write_driver [SUB_WR] Waiting bvalid_delay=5 cycles
UVM_INFO ./uvm/axi4l_uvc/axi4l_write_driver.sv(443) @ 2475: uvm_test_top.env.upstream_agent.write_driver [MGR_WR] Upstream W handshake completed at 2475
UVM_INFO ./uvm/axi4l_uvc/axi4l_write_driver.sv(460) @ 2475: uvm_test_top.env.upstream_agent.write_driver [MGR_WR] Upstream AW/W completed at 2475; bready_delay=5
UVM_INFO ./uvm/axi4l_uvc/axi4l_write_driver.sv(630) @ 2525: uvm_test_top.env.downstream_agent.write_driver [SUB_WR] Now asserting BVALID
UVM_INFO ./uvm/axi4l_uvc/axi4l_write_driver.sv(476) @ 2525: uvm_test_top.env.upstream_agent.write_driver [MGR_WR] Now asserting upstream BREADY at 2525
UVM_INFO ./uvm/axi4l_uvc/sequences/axi4l_write_seq.sv(15) @ 2535: uvm_test_top.env.upstream_agent.write_sequencer@@manager_write_seq [norm5_manager_write_seq] Upstream AXI4-Lite write Sequence
UVM_INFO ./uvm/axi4l_uvc/sequences/axi4l_write_seq.sv(51) @ 2535: uvm_test_top.env.downstream_agent.write_sequencer@@subordinate_write_seq [norm5_subordinate_write_seq] Downstream AXI4-Lite write Sequence
UVM_INFO ./uvm/axi4l_uvc/axi4l_write_driver.sv(413) @ 2585: uvm_test_top.env.upstream_agent.write_driver [MGR_WR] Upstream AW handshake completed at 2585
UVM_INFO ./uvm/axi4l_uvc/axi4l_write_driver.sv(556) @ 2595: uvm_test_top.env.downstream_agent.write_driver [SUB_WR] Passed AW/W handshakes
UVM_INFO ./uvm/axi4l_uvc/axi4l_write_driver.sv(619) @ 2595: uvm_test_top.env.downstream_agent.write_driver [SUB_WR] Waiting bvalid_delay=0 cycles
UVM_INFO ./uvm/axi4l_uvc/axi4l_write_driver.sv(630) @ 2595: uvm_test_top.env.downstream_agent.write_driver [SUB_WR] Now asserting BVALID
UVM_INFO ./uvm/axi4l_uvc/axi4l_write_driver.sv(443) @ 2595: uvm_test_top.env.upstream_agent.write_driver [MGR_WR] Upstream W handshake completed at 2595
UVM_INFO ./uvm/axi4l_uvc/axi4l_write_driver.sv(460) @ 2595: uvm_test_top.env.upstream_agent.write_driver [MGR_WR] Upstream AW/W completed at 2595; bready_delay=0
UVM_INFO ./uvm/axi4l_uvc/axi4l_write_driver.sv(476) @ 2595: uvm_test_top.env.upstream_agent.write_driver [MGR_WR] Now asserting upstream BREADY at 2595
UVM_INFO ./uvm/axi4l_uvc/sequences/axi4l_write_seq.sv(15) @ 2605: uvm_test_top.env.upstream_agent.write_sequencer@@manager_write_seq [norm5_manager_write_seq] Upstream AXI4-Lite write Sequence
UVM_INFO ./uvm/axi4l_uvc/sequences/axi4l_write_seq.sv(51) @ 2605: uvm_test_top.env.downstream_agent.write_sequencer@@subordinate_write_seq [norm5_subordinate_write_seq] Downstream AXI4-Lite write Sequence
UVM_INFO ./uvm/axi4l_uvc/axi4l_write_driver.sv(413) @ 2645: uvm_test_top.env.upstream_agent.write_driver [MGR_WR] Upstream AW handshake completed at 2645
UVM_INFO ./uvm/axi4l_uvc/axi4l_write_driver.sv(556) @ 2655: uvm_test_top.env.downstream_agent.write_driver [SUB_WR] Passed AW/W handshakes
UVM_INFO ./uvm/axi4l_uvc/axi4l_write_driver.sv(619) @ 2655: uvm_test_top.env.downstream_agent.write_driver [SUB_WR] Waiting bvalid_delay=4 cycles
UVM_INFO ./uvm/axi4l_uvc/axi4l_write_driver.sv(443) @ 2655: uvm_test_top.env.upstream_agent.write_driver [MGR_WR] Upstream W handshake completed at 2655
UVM_INFO ./uvm/axi4l_uvc/axi4l_write_driver.sv(460) @ 2655: uvm_test_top.env.upstream_agent.write_driver [MGR_WR] Upstream AW/W completed at 2655; bready_delay=2
UVM_INFO ./uvm/axi4l_uvc/axi4l_write_driver.sv(476) @ 2675: uvm_test_top.env.upstream_agent.write_driver [MGR_WR] Now asserting upstream BREADY at 2675
UVM_INFO ./uvm/axi4l_uvc/axi4l_write_driver.sv(630) @ 2695: uvm_test_top.env.downstream_agent.write_driver [SUB_WR] Now asserting BVALID
UVM_INFO ./uvm/axi4l_uvc/sequences/axi4l_write_seq.sv(15) @ 2705: uvm_test_top.env.upstream_agent.write_sequencer@@manager_write_seq [norm5_manager_write_seq] Upstream AXI4-Lite write Sequence
UVM_INFO ./uvm/axi4l_uvc/sequences/axi4l_write_seq.sv(51) @ 2705: uvm_test_top.env.downstream_agent.write_sequencer@@subordinate_write_seq [norm5_subordinate_write_seq] Downstream AXI4-Lite write Sequence
UVM_INFO ./uvm/axi4l_uvc/axi4l_write_driver.sv(413) @ 2765: uvm_test_top.env.upstream_agent.write_driver [MGR_WR] Upstream AW handshake completed at 2765
UVM_INFO ./uvm/axi4l_uvc/axi4l_write_driver.sv(556) @ 2775: uvm_test_top.env.downstream_agent.write_driver [SUB_WR] Passed AW/W handshakes
UVM_INFO ./uvm/axi4l_uvc/axi4l_write_driver.sv(619) @ 2775: uvm_test_top.env.downstream_agent.write_driver [SUB_WR] Waiting bvalid_delay=1 cycles
UVM_INFO ./uvm/axi4l_uvc/axi4l_write_driver.sv(443) @ 2775: uvm_test_top.env.upstream_agent.write_driver [MGR_WR] Upstream W handshake completed at 2775
UVM_INFO ./uvm/axi4l_uvc/axi4l_write_driver.sv(460) @ 2775: uvm_test_top.env.upstream_agent.write_driver [MGR_WR] Upstream AW/W completed at 2775; bready_delay=5
UVM_INFO ./uvm/axi4l_uvc/axi4l_write_driver.sv(630) @ 2785: uvm_test_top.env.downstream_agent.write_driver [SUB_WR] Now asserting BVALID
UVM_INFO ./uvm/axi4l_uvc/axi4l_write_driver.sv(476) @ 2825: uvm_test_top.env.upstream_agent.write_driver [MGR_WR] Now asserting upstream BREADY at 2825
UVM_INFO ./uvm/axi4l_uvc/sequences/axi4l_write_seq.sv(15) @ 2835: uvm_test_top.env.upstream_agent.write_sequencer@@manager_write_seq [norm5_manager_write_seq] Upstream AXI4-Lite write Sequence
UVM_INFO ./uvm/axi4l_uvc/sequences/axi4l_write_seq.sv(51) @ 2835: uvm_test_top.env.downstream_agent.write_sequencer@@subordinate_write_seq [norm5_subordinate_write_seq] Downstream AXI4-Lite write Sequence
UVM_INFO ./uvm/axi4l_uvc/axi4l_write_driver.sv(413) @ 2895: uvm_test_top.env.upstream_agent.write_driver [MGR_WR] Upstream AW handshake completed at 2895
UVM_INFO ./uvm/axi4l_uvc/axi4l_write_driver.sv(556) @ 2905: uvm_test_top.env.downstream_agent.write_driver [SUB_WR] Passed AW/W handshakes
UVM_INFO ./uvm/axi4l_uvc/axi4l_write_driver.sv(619) @ 2905: uvm_test_top.env.downstream_agent.write_driver [SUB_WR] Waiting bvalid_delay=1 cycles
UVM_INFO ./uvm/axi4l_uvc/axi4l_write_driver.sv(443) @ 2905: uvm_test_top.env.upstream_agent.write_driver [MGR_WR] Upstream W handshake completed at 2905
UVM_INFO ./uvm/axi4l_uvc/axi4l_write_driver.sv(460) @ 2905: uvm_test_top.env.upstream_agent.write_driver [MGR_WR] Upstream AW/W completed at 2905; bready_delay=5
UVM_INFO ./uvm/axi4l_uvc/axi4l_write_driver.sv(630) @ 2915: uvm_test_top.env.downstream_agent.write_driver [SUB_WR] Now asserting BVALID
UVM_INFO ./uvm/axi4l_uvc/axi4l_write_driver.sv(476) @ 2955: uvm_test_top.env.upstream_agent.write_driver [MGR_WR] Now asserting upstream BREADY at 2955
UVM_INFO ./uvm/axi4l_uvc/sequences/axi4l_write_seq.sv(15) @ 2965: uvm_test_top.env.upstream_agent.write_sequencer@@manager_write_seq [norm5_manager_write_seq] Upstream AXI4-Lite write Sequence
UVM_INFO ./uvm/axi4l_uvc/sequences/axi4l_write_seq.sv(51) @ 2965: uvm_test_top.env.downstream_agent.write_sequencer@@subordinate_write_seq [norm5_subordinate_write_seq] Downstream AXI4-Lite write Sequence
UVM_INFO ./uvm/axi4l_uvc/axi4l_write_driver.sv(413) @ 3005: uvm_test_top.env.upstream_agent.write_driver [MGR_WR] Upstream AW handshake completed at 3005
UVM_INFO ./uvm/axi4l_uvc/axi4l_write_driver.sv(556) @ 3025: uvm_test_top.env.downstream_agent.write_driver [SUB_WR] Passed AW/W handshakes
UVM_INFO ./uvm/axi4l_uvc/axi4l_write_driver.sv(619) @ 3025: uvm_test_top.env.downstream_agent.write_driver [SUB_WR] Waiting bvalid_delay=5 cycles
UVM_INFO ./uvm/axi4l_uvc/axi4l_write_driver.sv(443) @ 3025: uvm_test_top.env.upstream_agent.write_driver [MGR_WR] Upstream W handshake completed at 3025
UVM_INFO ./uvm/axi4l_uvc/axi4l_write_driver.sv(460) @ 3025: uvm_test_top.env.upstream_agent.write_driver [MGR_WR] Upstream AW/W completed at 3025; bready_delay=3
UVM_INFO ./uvm/axi4l_uvc/axi4l_write_driver.sv(476) @ 3055: uvm_test_top.env.upstream_agent.write_driver [MGR_WR] Now asserting upstream BREADY at 3055
UVM_INFO ./uvm/axi4l_uvc/axi4l_write_driver.sv(630) @ 3075: uvm_test_top.env.downstream_agent.write_driver [SUB_WR] Now asserting BVALID
UVM_INFO ./uvm/axi4l_uvc/sequences/axi4l_write_seq.sv(15) @ 3085: uvm_test_top.env.upstream_agent.write_sequencer@@manager_write_seq [norm5_manager_write_seq] Upstream AXI4-Lite write Sequence
UVM_INFO ./uvm/axi4l_uvc/sequences/axi4l_write_seq.sv(51) @ 3085: uvm_test_top.env.downstream_agent.write_sequencer@@subordinate_write_seq [norm5_subordinate_write_seq] Downstream AXI4-Lite write Sequence
UVM_INFO ./uvm/axi4l_uvc/axi4l_write_driver.sv(413) @ 3095: uvm_test_top.env.upstream_agent.write_driver [MGR_WR] Upstream AW handshake completed at 3095
UVM_INFO ./uvm/axi4l_uvc/axi4l_write_driver.sv(556) @ 3125: uvm_test_top.env.downstream_agent.write_driver [SUB_WR] Passed AW/W handshakes
UVM_INFO ./uvm/axi4l_uvc/axi4l_write_driver.sv(619) @ 3125: uvm_test_top.env.downstream_agent.write_driver [SUB_WR] Waiting bvalid_delay=2 cycles
UVM_INFO ./uvm/axi4l_uvc/axi4l_write_driver.sv(443) @ 3125: uvm_test_top.env.upstream_agent.write_driver [MGR_WR] Upstream W handshake completed at 3125
UVM_INFO ./uvm/axi4l_uvc/axi4l_write_driver.sv(460) @ 3125: uvm_test_top.env.upstream_agent.write_driver [MGR_WR] Upstream AW/W completed at 3125; bready_delay=5
UVM_INFO ./uvm/axi4l_uvc/axi4l_write_driver.sv(630) @ 3145: uvm_test_top.env.downstream_agent.write_driver [SUB_WR] Now asserting BVALID
UVM_INFO ./uvm/axi4l_uvc/axi4l_write_driver.sv(476) @ 3175: uvm_test_top.env.upstream_agent.write_driver [MGR_WR] Now asserting upstream BREADY at 3175
UVM_INFO ./uvm/axi4l_uvc/sequences/axi4l_write_seq.sv(15) @ 3185: uvm_test_top.env.upstream_agent.write_sequencer@@manager_write_seq [norm5_manager_write_seq] Upstream AXI4-Lite write Sequence
UVM_INFO ./uvm/axi4l_uvc/sequences/axi4l_write_seq.sv(51) @ 3185: uvm_test_top.env.downstream_agent.write_sequencer@@subordinate_write_seq [norm5_subordinate_write_seq] Downstream AXI4-Lite write Sequence
UVM_INFO ./uvm/axi4l_uvc/axi4l_write_driver.sv(413) @ 3205: uvm_test_top.env.upstream_agent.write_driver [MGR_WR] Upstream AW handshake completed at 3205
UVM_INFO ./uvm/axi4l_uvc/axi4l_write_driver.sv(556) @ 3245: uvm_test_top.env.downstream_agent.write_driver [SUB_WR] Passed AW/W handshakes
UVM_INFO ./uvm/axi4l_uvc/axi4l_write_driver.sv(619) @ 3245: uvm_test_top.env.downstream_agent.write_driver [SUB_WR] Waiting bvalid_delay=4 cycles
UVM_INFO ./uvm/axi4l_uvc/axi4l_write_driver.sv(443) @ 3245: uvm_test_top.env.upstream_agent.write_driver [MGR_WR] Upstream W handshake completed at 3245
UVM_INFO ./uvm/axi4l_uvc/axi4l_write_driver.sv(460) @ 3245: uvm_test_top.env.upstream_agent.write_driver [MGR_WR] Upstream AW/W completed at 3245; bready_delay=4
UVM_INFO ./uvm/axi4l_uvc/axi4l_write_driver.sv(630) @ 3285: uvm_test_top.env.downstream_agent.write_driver [SUB_WR] Now asserting BVALID
UVM_INFO ./uvm/axi4l_uvc/axi4l_write_driver.sv(476) @ 3285: uvm_test_top.env.upstream_agent.write_driver [MGR_WR] Now asserting upstream BREADY at 3285
UVM_INFO ./uvm/axi4l_uvc/sequences/axi4l_write_seq.sv(15) @ 3295: uvm_test_top.env.upstream_agent.write_sequencer@@manager_write_seq [norm5_manager_write_seq] Upstream AXI4-Lite write Sequence
UVM_INFO ./uvm/axi4l_uvc/sequences/axi4l_write_seq.sv(51) @ 3295: uvm_test_top.env.downstream_agent.write_sequencer@@subordinate_write_seq [norm5_subordinate_write_seq] Downstream AXI4-Lite write Sequence
UVM_INFO ./uvm/axi4l_uvc/axi4l_write_driver.sv(413) @ 3305: uvm_test_top.env.upstream_agent.write_driver [MGR_WR] Upstream AW handshake completed at 3305
UVM_INFO ./uvm/axi4l_uvc/axi4l_write_driver.sv(556) @ 3345: uvm_test_top.env.downstream_agent.write_driver [SUB_WR] Passed AW/W handshakes
UVM_INFO ./uvm/axi4l_uvc/axi4l_write_driver.sv(619) @ 3345: uvm_test_top.env.downstream_agent.write_driver [SUB_WR] Waiting bvalid_delay=2 cycles
UVM_INFO ./uvm/axi4l_uvc/axi4l_write_driver.sv(443) @ 3345: uvm_test_top.env.upstream_agent.write_driver [MGR_WR] Upstream W handshake completed at 3345
UVM_INFO ./uvm/axi4l_uvc/axi4l_write_driver.sv(460) @ 3345: uvm_test_top.env.upstream_agent.write_driver [MGR_WR] Upstream AW/W completed at 3345; bready_delay=3
UVM_INFO ./uvm/axi4l_uvc/axi4l_write_driver.sv(630) @ 3365: uvm_test_top.env.downstream_agent.write_driver [SUB_WR] Now asserting BVALID
UVM_INFO ./uvm/axi4l_uvc/axi4l_write_driver.sv(476) @ 3375: uvm_test_top.env.upstream_agent.write_driver [MGR_WR] Now asserting upstream BREADY at 3375
UVM_INFO ./uvm/axi4l_uvc/sequences/axi4l_write_seq.sv(15) @ 3385: uvm_test_top.env.upstream_agent.write_sequencer@@manager_write_seq [norm5_manager_write_seq] Upstream AXI4-Lite write Sequence
UVM_INFO ./uvm/axi4l_uvc/sequences/axi4l_write_seq.sv(51) @ 3385: uvm_test_top.env.downstream_agent.write_sequencer@@subordinate_write_seq [norm5_subordinate_write_seq] Downstream AXI4-Lite write Sequence
UVM_INFO ./uvm/axi4l_uvc/axi4l_write_driver.sv(413) @ 3425: uvm_test_top.env.upstream_agent.write_driver [MGR_WR] Upstream AW handshake completed at 3425
UVM_INFO ./uvm/axi4l_uvc/axi4l_write_driver.sv(556) @ 3445: uvm_test_top.env.downstream_agent.write_driver [SUB_WR] Passed AW/W handshakes
UVM_INFO ./uvm/axi4l_uvc/axi4l_write_driver.sv(619) @ 3445: uvm_test_top.env.downstream_agent.write_driver [SUB_WR] Waiting bvalid_delay=5 cycles
UVM_INFO ./uvm/axi4l_uvc/axi4l_write_driver.sv(443) @ 3445: uvm_test_top.env.upstream_agent.write_driver [MGR_WR] Upstream W handshake completed at 3445
UVM_INFO ./uvm/axi4l_uvc/axi4l_write_driver.sv(460) @ 3445: uvm_test_top.env.upstream_agent.write_driver [MGR_WR] Upstream AW/W completed at 3445; bready_delay=5
UVM_INFO ./uvm/axi4l_uvc/axi4l_write_driver.sv(630) @ 3495: uvm_test_top.env.downstream_agent.write_driver [SUB_WR] Now asserting BVALID
UVM_INFO ./uvm/axi4l_uvc/axi4l_write_driver.sv(476) @ 3495: uvm_test_top.env.upstream_agent.write_driver [MGR_WR] Now asserting upstream BREADY at 3495
UVM_INFO ./uvm/axi4l_uvc/sequences/axi4l_write_seq.sv(15) @ 3505: uvm_test_top.env.upstream_agent.write_sequencer@@manager_write_seq [norm5_manager_write_seq] Upstream AXI4-Lite write Sequence
UVM_INFO ./uvm/axi4l_uvc/sequences/axi4l_write_seq.sv(51) @ 3505: uvm_test_top.env.downstream_agent.write_sequencer@@subordinate_write_seq [norm5_subordinate_write_seq] Downstream AXI4-Lite write Sequence
UVM_INFO ./uvm/axi4l_uvc/axi4l_write_driver.sv(413) @ 3555: uvm_test_top.env.upstream_agent.write_driver [MGR_WR] Upstream AW handshake completed at 3555
UVM_INFO ./uvm/axi4l_uvc/axi4l_write_driver.sv(556) @ 3565: uvm_test_top.env.downstream_agent.write_driver [SUB_WR] Passed AW/W handshakes
UVM_INFO ./uvm/axi4l_uvc/axi4l_write_driver.sv(619) @ 3565: uvm_test_top.env.downstream_agent.write_driver [SUB_WR] Waiting bvalid_delay=5 cycles
UVM_INFO ./uvm/axi4l_uvc/axi4l_write_driver.sv(443) @ 3565: uvm_test_top.env.upstream_agent.write_driver [MGR_WR] Upstream W handshake completed at 3565
UVM_INFO ./uvm/axi4l_uvc/axi4l_write_driver.sv(460) @ 3565: uvm_test_top.env.upstream_agent.write_driver [MGR_WR] Upstream AW/W completed at 3565; bready_delay=2
UVM_INFO ./uvm/axi4l_uvc/axi4l_write_driver.sv(476) @ 3585: uvm_test_top.env.upstream_agent.write_driver [MGR_WR] Now asserting upstream BREADY at 3585
UVM_INFO ./uvm/axi4l_uvc/axi4l_write_driver.sv(630) @ 3615: uvm_test_top.env.downstream_agent.write_driver [SUB_WR] Now asserting BVALID
UVM_INFO ./uvm/axi4l_uvc/sequences/axi4l_write_seq.sv(15) @ 3625: uvm_test_top.env.upstream_agent.write_sequencer@@manager_write_seq [norm5_manager_write_seq] Upstream AXI4-Lite write Sequence
UVM_INFO ./uvm/axi4l_uvc/sequences/axi4l_write_seq.sv(51) @ 3625: uvm_test_top.env.downstream_agent.write_sequencer@@subordinate_write_seq [norm5_subordinate_write_seq] Downstream AXI4-Lite write Sequence
UVM_INFO ./uvm/axi4l_uvc/axi4l_write_driver.sv(413) @ 3675: uvm_test_top.env.upstream_agent.write_driver [MGR_WR] Upstream AW handshake completed at 3675
UVM_INFO ./uvm/axi4l_uvc/axi4l_write_driver.sv(556) @ 3685: uvm_test_top.env.downstream_agent.write_driver [SUB_WR] Passed AW/W handshakes
UVM_INFO ./uvm/axi4l_uvc/axi4l_write_driver.sv(619) @ 3685: uvm_test_top.env.downstream_agent.write_driver [SUB_WR] Waiting bvalid_delay=5 cycles
UVM_INFO ./uvm/axi4l_uvc/axi4l_write_driver.sv(443) @ 3685: uvm_test_top.env.upstream_agent.write_driver [MGR_WR] Upstream W handshake completed at 3685
UVM_INFO ./uvm/axi4l_uvc/axi4l_write_driver.sv(460) @ 3685: uvm_test_top.env.upstream_agent.write_driver [MGR_WR] Upstream AW/W completed at 3685; bready_delay=4
UVM_INFO ./uvm/axi4l_uvc/axi4l_write_driver.sv(476) @ 3725: uvm_test_top.env.upstream_agent.write_driver [MGR_WR] Now asserting upstream BREADY at 3725
UVM_INFO ./uvm/axi4l_uvc/axi4l_write_driver.sv(630) @ 3735: uvm_test_top.env.downstream_agent.write_driver [SUB_WR] Now asserting BVALID
UVM_INFO ./uvm/axi4l_uvc/sequences/axi4l_write_seq.sv(15) @ 3745: uvm_test_top.env.upstream_agent.write_sequencer@@manager_write_seq [norm5_manager_write_seq] Upstream AXI4-Lite write Sequence
UVM_INFO ./uvm/axi4l_uvc/sequences/axi4l_write_seq.sv(51) @ 3745: uvm_test_top.env.downstream_agent.write_sequencer@@subordinate_write_seq [norm5_subordinate_write_seq] Downstream AXI4-Lite write Sequence
UVM_INFO ./uvm/axi4l_uvc/axi4l_write_driver.sv(413) @ 3765: uvm_test_top.env.upstream_agent.write_driver [MGR_WR] Upstream AW handshake completed at 3765
UVM_INFO ./uvm/axi4l_uvc/axi4l_write_driver.sv(556) @ 3785: uvm_test_top.env.downstream_agent.write_driver [SUB_WR] Passed AW/W handshakes
UVM_INFO ./uvm/axi4l_uvc/axi4l_write_driver.sv(619) @ 3785: uvm_test_top.env.downstream_agent.write_driver [SUB_WR] Waiting bvalid_delay=2 cycles
UVM_INFO ./uvm/axi4l_uvc/axi4l_write_driver.sv(443) @ 3785: uvm_test_top.env.upstream_agent.write_driver [MGR_WR] Upstream W handshake completed at 3785
UVM_INFO ./uvm/axi4l_uvc/axi4l_write_driver.sv(460) @ 3785: uvm_test_top.env.upstream_agent.write_driver [MGR_WR] Upstream AW/W completed at 3785; bready_delay=1
UVM_INFO ./uvm/axi4l_uvc/axi4l_write_driver.sv(476) @ 3795: uvm_test_top.env.upstream_agent.write_driver [MGR_WR] Now asserting upstream BREADY at 3795
UVM_INFO ./uvm/axi4l_uvc/axi4l_write_driver.sv(630) @ 3805: uvm_test_top.env.downstream_agent.write_driver [SUB_WR] Now asserting BVALID
UVM_INFO ./uvm/axi4l_uvc/sequences/axi4l_write_seq.sv(15) @ 3815: uvm_test_top.env.upstream_agent.write_sequencer@@manager_write_seq [norm5_manager_write_seq] Upstream AXI4-Lite write Sequence
UVM_INFO ./uvm/axi4l_uvc/sequences/axi4l_write_seq.sv(51) @ 3815: uvm_test_top.env.downstream_agent.write_sequencer@@subordinate_write_seq [norm5_subordinate_write_seq] Downstream AXI4-Lite write Sequence
UVM_INFO ./uvm/axi4l_uvc/axi4l_write_driver.sv(413) @ 3855: uvm_test_top.env.upstream_agent.write_driver [MGR_WR] Upstream AW handshake completed at 3855
UVM_INFO ./uvm/axi4l_uvc/axi4l_write_driver.sv(556) @ 3875: uvm_test_top.env.downstream_agent.write_driver [SUB_WR] Passed AW/W handshakes
UVM_INFO ./uvm/axi4l_uvc/axi4l_write_driver.sv(619) @ 3875: uvm_test_top.env.downstream_agent.write_driver [SUB_WR] Waiting bvalid_delay=4 cycles
UVM_INFO ./uvm/axi4l_uvc/axi4l_write_driver.sv(443) @ 3875: uvm_test_top.env.upstream_agent.write_driver [MGR_WR] Upstream W handshake completed at 3875
UVM_INFO ./uvm/axi4l_uvc/axi4l_write_driver.sv(460) @ 3875: uvm_test_top.env.upstream_agent.write_driver [MGR_WR] Upstream AW/W completed at 3875; bready_delay=3
UVM_INFO ./uvm/axi4l_uvc/axi4l_write_driver.sv(476) @ 3905: uvm_test_top.env.upstream_agent.write_driver [MGR_WR] Now asserting upstream BREADY at 3905
UVM_INFO ./uvm/axi4l_uvc/axi4l_write_driver.sv(630) @ 3915: uvm_test_top.env.downstream_agent.write_driver [SUB_WR] Now asserting BVALID
UVM_INFO ./uvm/axi4l_uvc/sequences/axi4l_write_seq.sv(15) @ 3925: uvm_test_top.env.upstream_agent.write_sequencer@@manager_write_seq [norm5_manager_write_seq] Upstream AXI4-Lite write Sequence
UVM_INFO ./uvm/axi4l_uvc/sequences/axi4l_write_seq.sv(51) @ 3925: uvm_test_top.env.downstream_agent.write_sequencer@@subordinate_write_seq [norm5_subordinate_write_seq] Downstream AXI4-Lite write Sequence
UVM_INFO ./uvm/axi4l_uvc/axi4l_write_driver.sv(413) @ 3955: uvm_test_top.env.upstream_agent.write_driver [MGR_WR] Upstream AW handshake completed at 3955
UVM_INFO ./uvm/axi4l_uvc/axi4l_write_driver.sv(556) @ 3965: uvm_test_top.env.downstream_agent.write_driver [SUB_WR] Passed AW/W handshakes
UVM_INFO ./uvm/axi4l_uvc/axi4l_write_driver.sv(619) @ 3965: uvm_test_top.env.downstream_agent.write_driver [SUB_WR] Waiting bvalid_delay=3 cycles
UVM_INFO ./uvm/axi4l_uvc/axi4l_write_driver.sv(443) @ 3965: uvm_test_top.env.upstream_agent.write_driver [MGR_WR] Upstream W handshake completed at 3965
UVM_INFO ./uvm/axi4l_uvc/axi4l_write_driver.sv(460) @ 3965: uvm_test_top.env.upstream_agent.write_driver [MGR_WR] Upstream AW/W completed at 3965; bready_delay=5
UVM_INFO ./uvm/axi4l_uvc/axi4l_write_driver.sv(630) @ 3995: uvm_test_top.env.downstream_agent.write_driver [SUB_WR] Now asserting BVALID
UVM_INFO ./uvm/axi4l_uvc/axi4l_write_driver.sv(476) @ 4015: uvm_test_top.env.upstream_agent.write_driver [MGR_WR] Now asserting upstream BREADY at 4015
UVM_INFO ./uvm/axi4l_uvc/sequences/axi4l_write_seq.sv(15) @ 4025: uvm_test_top.env.upstream_agent.write_sequencer@@manager_write_seq [norm5_manager_write_seq] Upstream AXI4-Lite write Sequence
UVM_INFO ./uvm/axi4l_uvc/sequences/axi4l_write_seq.sv(51) @ 4025: uvm_test_top.env.downstream_agent.write_sequencer@@subordinate_write_seq [norm5_subordinate_write_seq] Downstream AXI4-Lite write Sequence
UVM_INFO ./uvm/axi4l_uvc/axi4l_write_driver.sv(413) @ 4085: uvm_test_top.env.upstream_agent.write_driver [MGR_WR] Upstream AW handshake completed at 4085
UVM_INFO ./uvm/axi4l_uvc/axi4l_write_driver.sv(556) @ 4095: uvm_test_top.env.downstream_agent.write_driver [SUB_WR] Passed AW/W handshakes
UVM_INFO ./uvm/axi4l_uvc/axi4l_write_driver.sv(619) @ 4095: uvm_test_top.env.downstream_agent.write_driver [SUB_WR] Waiting bvalid_delay=1 cycles
UVM_INFO ./uvm/axi4l_uvc/axi4l_write_driver.sv(443) @ 4095: uvm_test_top.env.upstream_agent.write_driver [MGR_WR] Upstream W handshake completed at 4095
UVM_INFO ./uvm/axi4l_uvc/axi4l_write_driver.sv(460) @ 4095: uvm_test_top.env.upstream_agent.write_driver [MGR_WR] Upstream AW/W completed at 4095; bready_delay=5
UVM_INFO ./uvm/axi4l_uvc/axi4l_write_driver.sv(630) @ 4105: uvm_test_top.env.downstream_agent.write_driver [SUB_WR] Now asserting BVALID
UVM_INFO ./uvm/axi4l_uvc/axi4l_write_driver.sv(476) @ 4145: uvm_test_top.env.upstream_agent.write_driver [MGR_WR] Now asserting upstream BREADY at 4145
UVM_INFO ./uvm/axi4l_uvc/sequences/axi4l_write_seq.sv(15) @ 4155: uvm_test_top.env.upstream_agent.write_sequencer@@manager_write_seq [norm5_manager_write_seq] Upstream AXI4-Lite write Sequence
UVM_INFO ./uvm/axi4l_uvc/sequences/axi4l_write_seq.sv(51) @ 4155: uvm_test_top.env.downstream_agent.write_sequencer@@subordinate_write_seq [norm5_subordinate_write_seq] Downstream AXI4-Lite write Sequence
UVM_INFO ./uvm/axi4l_uvc/axi4l_write_driver.sv(413) @ 4195: uvm_test_top.env.upstream_agent.write_driver [MGR_WR] Upstream AW handshake completed at 4195
UVM_INFO ./uvm/axi4l_uvc/axi4l_write_driver.sv(556) @ 4205: uvm_test_top.env.downstream_agent.write_driver [SUB_WR] Passed AW/W handshakes
UVM_INFO ./uvm/axi4l_uvc/axi4l_write_driver.sv(619) @ 4205: uvm_test_top.env.downstream_agent.write_driver [SUB_WR] Waiting bvalid_delay=3 cycles
UVM_INFO ./uvm/axi4l_uvc/axi4l_write_driver.sv(443) @ 4205: uvm_test_top.env.upstream_agent.write_driver [MGR_WR] Upstream W handshake completed at 4205
UVM_INFO ./uvm/axi4l_uvc/axi4l_write_driver.sv(460) @ 4205: uvm_test_top.env.upstream_agent.write_driver [MGR_WR] Upstream AW/W completed at 4205; bready_delay=2
UVM_INFO ./uvm/axi4l_uvc/axi4l_write_driver.sv(476) @ 4225: uvm_test_top.env.upstream_agent.write_driver [MGR_WR] Now asserting upstream BREADY at 4225
UVM_INFO ./uvm/axi4l_uvc/axi4l_write_driver.sv(630) @ 4235: uvm_test_top.env.downstream_agent.write_driver [SUB_WR] Now asserting BVALID
UVM_INFO ./uvm/axi4l_uvc/sequences/axi4l_write_seq.sv(15) @ 4245: uvm_test_top.env.upstream_agent.write_sequencer@@manager_write_seq [norm5_manager_write_seq] Upstream AXI4-Lite write Sequence
UVM_INFO ./uvm/axi4l_uvc/sequences/axi4l_write_seq.sv(51) @ 4245: uvm_test_top.env.downstream_agent.write_sequencer@@subordinate_write_seq [norm5_subordinate_write_seq] Downstream AXI4-Lite write Sequence
UVM_INFO ./uvm/axi4l_uvc/axi4l_write_driver.sv(413) @ 4285: uvm_test_top.env.upstream_agent.write_driver [MGR_WR] Upstream AW handshake completed at 4285
UVM_INFO ./uvm/axi4l_uvc/axi4l_write_driver.sv(556) @ 4295: uvm_test_top.env.downstream_agent.write_driver [SUB_WR] Passed AW/W handshakes
UVM_INFO ./uvm/axi4l_uvc/axi4l_write_driver.sv(619) @ 4295: uvm_test_top.env.downstream_agent.write_driver [SUB_WR] Waiting bvalid_delay=3 cycles
UVM_INFO ./uvm/axi4l_uvc/axi4l_write_driver.sv(443) @ 4295: uvm_test_top.env.upstream_agent.write_driver [MGR_WR] Upstream W handshake completed at 4295
UVM_INFO ./uvm/axi4l_uvc/axi4l_write_driver.sv(460) @ 4295: uvm_test_top.env.upstream_agent.write_driver [MGR_WR] Upstream AW/W completed at 4295; bready_delay=0
UVM_INFO ./uvm/axi4l_uvc/axi4l_write_driver.sv(476) @ 4295: uvm_test_top.env.upstream_agent.write_driver [MGR_WR] Now asserting upstream BREADY at 4295
UVM_INFO ./uvm/axi4l_uvc/axi4l_write_driver.sv(630) @ 4325: uvm_test_top.env.downstream_agent.write_driver [SUB_WR] Now asserting BVALID
UVM_INFO ./uvm/axi4l_uvc/sequences/axi4l_write_seq.sv(15) @ 4335: uvm_test_top.env.upstream_agent.write_sequencer@@manager_write_seq [norm5_manager_write_seq] Upstream AXI4-Lite write Sequence
UVM_INFO ./uvm/axi4l_uvc/sequences/axi4l_write_seq.sv(51) @ 4335: uvm_test_top.env.downstream_agent.write_sequencer@@subordinate_write_seq [norm5_subordinate_write_seq] Downstream AXI4-Lite write Sequence
UVM_INFO ./uvm/axi4l_uvc/axi4l_write_driver.sv(413) @ 4355: uvm_test_top.env.upstream_agent.write_driver [MGR_WR] Upstream AW handshake completed at 4355
UVM_INFO ./uvm/axi4l_uvc/axi4l_write_driver.sv(556) @ 4395: uvm_test_top.env.downstream_agent.write_driver [SUB_WR] Passed AW/W handshakes
UVM_INFO ./uvm/axi4l_uvc/axi4l_write_driver.sv(619) @ 4395: uvm_test_top.env.downstream_agent.write_driver [SUB_WR] Waiting bvalid_delay=2 cycles
UVM_INFO ./uvm/axi4l_uvc/axi4l_write_driver.sv(443) @ 4395: uvm_test_top.env.upstream_agent.write_driver [MGR_WR] Upstream W handshake completed at 4395
UVM_INFO ./uvm/axi4l_uvc/axi4l_write_driver.sv(460) @ 4395: uvm_test_top.env.upstream_agent.write_driver [MGR_WR] Upstream AW/W completed at 4395; bready_delay=0
UVM_INFO ./uvm/axi4l_uvc/axi4l_write_driver.sv(476) @ 4395: uvm_test_top.env.upstream_agent.write_driver [MGR_WR] Now asserting upstream BREADY at 4395
UVM_INFO ./uvm/axi4l_uvc/axi4l_write_driver.sv(630) @ 4415: uvm_test_top.env.downstream_agent.write_driver [SUB_WR] Now asserting BVALID
UVM_INFO ./uvm/axi4l_uvc/sequences/axi4l_write_seq.sv(15) @ 4425: uvm_test_top.env.upstream_agent.write_sequencer@@manager_write_seq [norm5_manager_write_seq] Upstream AXI4-Lite write Sequence
UVM_INFO ./uvm/axi4l_uvc/sequences/axi4l_write_seq.sv(51) @ 4425: uvm_test_top.env.downstream_agent.write_sequencer@@subordinate_write_seq [norm5_subordinate_write_seq] Downstream AXI4-Lite write Sequence
UVM_INFO ./uvm/axi4l_uvc/axi4l_write_driver.sv(413) @ 4465: uvm_test_top.env.upstream_agent.write_driver [MGR_WR] Upstream AW handshake completed at 4465
UVM_INFO ./uvm/axi4l_uvc/axi4l_write_driver.sv(556) @ 4485: uvm_test_top.env.downstream_agent.write_driver [SUB_WR] Passed AW/W handshakes
UVM_INFO ./uvm/axi4l_uvc/axi4l_write_driver.sv(619) @ 4485: uvm_test_top.env.downstream_agent.write_driver [SUB_WR] Waiting bvalid_delay=4 cycles
UVM_INFO ./uvm/axi4l_uvc/axi4l_write_driver.sv(443) @ 4485: uvm_test_top.env.upstream_agent.write_driver [MGR_WR] Upstream W handshake completed at 4485
UVM_INFO ./uvm/axi4l_uvc/axi4l_write_driver.sv(460) @ 4485: uvm_test_top.env.upstream_agent.write_driver [MGR_WR] Upstream AW/W completed at 4485; bready_delay=0
UVM_INFO ./uvm/axi4l_uvc/axi4l_write_driver.sv(476) @ 4485: uvm_test_top.env.upstream_agent.write_driver [MGR_WR] Now asserting upstream BREADY at 4485
UVM_INFO ./uvm/axi4l_uvc/axi4l_write_driver.sv(630) @ 4525: uvm_test_top.env.downstream_agent.write_driver [SUB_WR] Now asserting BVALID
UVM_INFO ./uvm/axi4l_uvc/sequences/axi4l_write_seq.sv(15) @ 4535: uvm_test_top.env.upstream_agent.write_sequencer@@manager_write_seq [norm5_manager_write_seq] Upstream AXI4-Lite write Sequence
UVM_INFO ./uvm/axi4l_uvc/sequences/axi4l_write_seq.sv(51) @ 4535: uvm_test_top.env.downstream_agent.write_sequencer@@subordinate_write_seq [norm5_subordinate_write_seq] Downstream AXI4-Lite write Sequence
UVM_INFO ./uvm/axi4l_uvc/axi4l_write_driver.sv(413) @ 4585: uvm_test_top.env.upstream_agent.write_driver [MGR_WR] Upstream AW handshake completed at 4585
UVM_INFO ./uvm/axi4l_uvc/axi4l_write_driver.sv(556) @ 4595: uvm_test_top.env.downstream_agent.write_driver [SUB_WR] Passed AW/W handshakes
UVM_INFO ./uvm/axi4l_uvc/axi4l_write_driver.sv(619) @ 4595: uvm_test_top.env.downstream_agent.write_driver [SUB_WR] Waiting bvalid_delay=3 cycles
UVM_INFO ./uvm/axi4l_uvc/axi4l_write_driver.sv(443) @ 4595: uvm_test_top.env.upstream_agent.write_driver [MGR_WR] Upstream W handshake completed at 4595
UVM_INFO ./uvm/axi4l_uvc/axi4l_write_driver.sv(460) @ 4595: uvm_test_top.env.upstream_agent.write_driver [MGR_WR] Upstream AW/W completed at 4595; bready_delay=1
UVM_INFO ./uvm/axi4l_uvc/axi4l_write_driver.sv(476) @ 4605: uvm_test_top.env.upstream_agent.write_driver [MGR_WR] Now asserting upstream BREADY at 4605
UVM_INFO ./uvm/axi4l_uvc/axi4l_write_driver.sv(630) @ 4625: uvm_test_top.env.downstream_agent.write_driver [SUB_WR] Now asserting BVALID
UVM_INFO ./uvm/axi4l_uvc/sequences/axi4l_write_seq.sv(15) @ 4635: uvm_test_top.env.upstream_agent.write_sequencer@@manager_write_seq [norm5_manager_write_seq] Upstream AXI4-Lite write Sequence
UVM_INFO ./uvm/axi4l_uvc/sequences/axi4l_write_seq.sv(51) @ 4635: uvm_test_top.env.downstream_agent.write_sequencer@@subordinate_write_seq [norm5_subordinate_write_seq] Downstream AXI4-Lite write Sequence
UVM_INFO ./uvm/axi4l_uvc/axi4l_write_driver.sv(413) @ 4665: uvm_test_top.env.upstream_agent.write_driver [MGR_WR] Upstream AW handshake completed at 4665
UVM_INFO ./uvm/axi4l_uvc/axi4l_write_driver.sv(556) @ 4675: uvm_test_top.env.downstream_agent.write_driver [SUB_WR] Passed AW/W handshakes
UVM_INFO ./uvm/axi4l_uvc/axi4l_write_driver.sv(619) @ 4675: uvm_test_top.env.downstream_agent.write_driver [SUB_WR] Waiting bvalid_delay=3 cycles
UVM_INFO ./uvm/axi4l_uvc/axi4l_write_driver.sv(443) @ 4675: uvm_test_top.env.upstream_agent.write_driver [MGR_WR] Upstream W handshake completed at 4675
UVM_INFO ./uvm/axi4l_uvc/axi4l_write_driver.sv(460) @ 4675: uvm_test_top.env.upstream_agent.write_driver [MGR_WR] Upstream AW/W completed at 4675; bready_delay=4
UVM_INFO ./uvm/axi4l_uvc/axi4l_write_driver.sv(630) @ 4705: uvm_test_top.env.downstream_agent.write_driver [SUB_WR] Now asserting BVALID
UVM_INFO ./uvm/axi4l_uvc/axi4l_write_driver.sv(476) @ 4715: uvm_test_top.env.upstream_agent.write_driver [MGR_WR] Now asserting upstream BREADY at 4715
UVM_INFO ./uvm/axi4l_uvc/sequences/axi4l_write_seq.sv(15) @ 4725: uvm_test_top.env.upstream_agent.write_sequencer@@manager_write_seq [norm5_manager_write_seq] Upstream AXI4-Lite write Sequence
UVM_INFO ./uvm/axi4l_uvc/sequences/axi4l_write_seq.sv(51) @ 4725: uvm_test_top.env.downstream_agent.write_sequencer@@subordinate_write_seq [norm5_subordinate_write_seq] Downstream AXI4-Lite write Sequence
UVM_INFO ./uvm/axi4l_uvc/axi4l_write_driver.sv(413) @ 4775: uvm_test_top.env.upstream_agent.write_driver [MGR_WR] Upstream AW handshake completed at 4775
UVM_INFO ./uvm/axi4l_uvc/axi4l_write_driver.sv(556) @ 4785: uvm_test_top.env.downstream_agent.write_driver [SUB_WR] Passed AW/W handshakes
UVM_INFO ./uvm/axi4l_uvc/axi4l_write_driver.sv(619) @ 4785: uvm_test_top.env.downstream_agent.write_driver [SUB_WR] Waiting bvalid_delay=0 cycles
UVM_INFO ./uvm/axi4l_uvc/axi4l_write_driver.sv(630) @ 4785: uvm_test_top.env.downstream_agent.write_driver [SUB_WR] Now asserting BVALID
UVM_INFO ./uvm/axi4l_uvc/axi4l_write_driver.sv(443) @ 4785: uvm_test_top.env.upstream_agent.write_driver [MGR_WR] Upstream W handshake completed at 4785
UVM_INFO ./uvm/axi4l_uvc/axi4l_write_driver.sv(460) @ 4785: uvm_test_top.env.upstream_agent.write_driver [MGR_WR] Upstream AW/W completed at 4785; bready_delay=4
UVM_INFO ./uvm/axi4l_uvc/axi4l_write_driver.sv(476) @ 4825: uvm_test_top.env.upstream_agent.write_driver [MGR_WR] Now asserting upstream BREADY at 4825
UVM_INFO ./uvm/axi4l_uvc/sequences/axi4l_write_seq.sv(15) @ 4835: uvm_test_top.env.upstream_agent.write_sequencer@@manager_write_seq [norm5_manager_write_seq] Upstream AXI4-Lite write Sequence
UVM_INFO ./uvm/axi4l_uvc/sequences/axi4l_write_seq.sv(51) @ 4835: uvm_test_top.env.downstream_agent.write_sequencer@@subordinate_write_seq [norm5_subordinate_write_seq] Downstream AXI4-Lite write Sequence
UVM_INFO ./uvm/axi4l_uvc/axi4l_write_driver.sv(413) @ 4885: uvm_test_top.env.upstream_agent.write_driver [MGR_WR] Upstream AW handshake completed at 4885
UVM_INFO ./uvm/axi4l_uvc/axi4l_write_driver.sv(556) @ 4895: uvm_test_top.env.downstream_agent.write_driver [SUB_WR] Passed AW/W handshakes
UVM_INFO ./uvm/axi4l_uvc/axi4l_write_driver.sv(619) @ 4895: uvm_test_top.env.downstream_agent.write_driver [SUB_WR] Waiting bvalid_delay=0 cycles
UVM_INFO ./uvm/axi4l_uvc/axi4l_write_driver.sv(630) @ 4895: uvm_test_top.env.downstream_agent.write_driver [SUB_WR] Now asserting BVALID
UVM_INFO ./uvm/axi4l_uvc/axi4l_write_driver.sv(443) @ 4895: uvm_test_top.env.upstream_agent.write_driver [MGR_WR] Upstream W handshake completed at 4895
UVM_INFO ./uvm/axi4l_uvc/axi4l_write_driver.sv(460) @ 4895: uvm_test_top.env.upstream_agent.write_driver [MGR_WR] Upstream AW/W completed at 4895; bready_delay=2
UVM_INFO ./uvm/axi4l_uvc/axi4l_write_driver.sv(476) @ 4915: uvm_test_top.env.upstream_agent.write_driver [MGR_WR] Now asserting upstream BREADY at 4915
UVM_INFO ./uvm/axi4l_uvc/sequences/axi4l_write_seq.sv(15) @ 4925: uvm_test_top.env.upstream_agent.write_sequencer@@manager_write_seq [norm5_manager_write_seq] Upstream AXI4-Lite write Sequence
UVM_INFO ./uvm/axi4l_uvc/sequences/axi4l_write_seq.sv(51) @ 4925: uvm_test_top.env.downstream_agent.write_sequencer@@subordinate_write_seq [norm5_subordinate_write_seq] Downstream AXI4-Lite write Sequence
UVM_INFO ./uvm/axi4l_uvc/axi4l_write_driver.sv(413) @ 4965: uvm_test_top.env.upstream_agent.write_driver [MGR_WR] Upstream AW handshake completed at 4965
UVM_INFO ./uvm/axi4l_uvc/axi4l_write_driver.sv(556) @ 4975: uvm_test_top.env.downstream_agent.write_driver [SUB_WR] Passed AW/W handshakes
UVM_INFO ./uvm/axi4l_uvc/axi4l_write_driver.sv(619) @ 4975: uvm_test_top.env.downstream_agent.write_driver [SUB_WR] Waiting bvalid_delay=4 cycles
UVM_INFO ./uvm/axi4l_uvc/axi4l_write_driver.sv(443) @ 4975: uvm_test_top.env.upstream_agent.write_driver [MGR_WR] Upstream W handshake completed at 4975
UVM_INFO ./uvm/axi4l_uvc/axi4l_write_driver.sv(460) @ 4975: uvm_test_top.env.upstream_agent.write_driver [MGR_WR] Upstream AW/W completed at 4975; bready_delay=5
UVM_INFO ./uvm/axi4l_uvc/axi4l_write_driver.sv(630) @ 5015: uvm_test_top.env.downstream_agent.write_driver [SUB_WR] Now asserting BVALID
UVM_INFO ./uvm/axi4l_uvc/axi4l_write_driver.sv(476) @ 5025: uvm_test_top.env.upstream_agent.write_driver [MGR_WR] Now asserting upstream BREADY at 5025
UVM_INFO ./uvm/axi4l_uvc/sequences/axi4l_write_seq.sv(15) @ 5035: uvm_test_top.env.upstream_agent.write_sequencer@@manager_write_seq [norm5_manager_write_seq] Upstream AXI4-Lite write Sequence
UVM_INFO ./uvm/axi4l_uvc/sequences/axi4l_write_seq.sv(51) @ 5035: uvm_test_top.env.downstream_agent.write_sequencer@@subordinate_write_seq [norm5_subordinate_write_seq] Downstream AXI4-Lite write Sequence
UVM_INFO ./uvm/axi4l_uvc/axi4l_write_driver.sv(413) @ 5055: uvm_test_top.env.upstream_agent.write_driver [MGR_WR] Upstream AW handshake completed at 5055
UVM_INFO ./uvm/axi4l_uvc/axi4l_write_driver.sv(556) @ 5075: uvm_test_top.env.downstream_agent.write_driver [SUB_WR] Passed AW/W handshakes
UVM_INFO ./uvm/axi4l_uvc/axi4l_write_driver.sv(619) @ 5075: uvm_test_top.env.downstream_agent.write_driver [SUB_WR] Waiting bvalid_delay=3 cycles
UVM_INFO ./uvm/axi4l_uvc/axi4l_write_driver.sv(443) @ 5075: uvm_test_top.env.upstream_agent.write_driver [MGR_WR] Upstream W handshake completed at 5075
UVM_INFO ./uvm/axi4l_uvc/axi4l_write_driver.sv(460) @ 5075: uvm_test_top.env.upstream_agent.write_driver [MGR_WR] Upstream AW/W completed at 5075; bready_delay=1
UVM_INFO ./uvm/axi4l_uvc/axi4l_write_driver.sv(476) @ 5085: uvm_test_top.env.upstream_agent.write_driver [MGR_WR] Now asserting upstream BREADY at 5085
UVM_INFO ./uvm/axi4l_uvc/axi4l_write_driver.sv(630) @ 5105: uvm_test_top.env.downstream_agent.write_driver [SUB_WR] Now asserting BVALID
UVM_INFO ./uvm/axi4l_uvc/sequences/axi4l_write_seq.sv(15) @ 5115: uvm_test_top.env.upstream_agent.write_sequencer@@manager_write_seq [norm5_manager_write_seq] Upstream AXI4-Lite write Sequence
UVM_INFO ./uvm/axi4l_uvc/sequences/axi4l_write_seq.sv(51) @ 5115: uvm_test_top.env.downstream_agent.write_sequencer@@subordinate_write_seq [norm5_subordinate_write_seq] Downstream AXI4-Lite write Sequence
UVM_INFO ./uvm/axi4l_uvc/axi4l_write_driver.sv(413) @ 5145: uvm_test_top.env.upstream_agent.write_driver [MGR_WR] Upstream AW handshake completed at 5145
UVM_INFO ./uvm/axi4l_uvc/axi4l_write_driver.sv(556) @ 5155: uvm_test_top.env.downstream_agent.write_driver [SUB_WR] Passed AW/W handshakes
UVM_INFO ./uvm/axi4l_uvc/axi4l_write_driver.sv(619) @ 5155: uvm_test_top.env.downstream_agent.write_driver [SUB_WR] Waiting bvalid_delay=3 cycles
UVM_INFO ./uvm/axi4l_uvc/axi4l_write_driver.sv(443) @ 5155: uvm_test_top.env.upstream_agent.write_driver [MGR_WR] Upstream W handshake completed at 5155
UVM_INFO ./uvm/axi4l_uvc/axi4l_write_driver.sv(460) @ 5155: uvm_test_top.env.upstream_agent.write_driver [MGR_WR] Upstream AW/W completed at 5155; bready_delay=0
UVM_INFO ./uvm/axi4l_uvc/axi4l_write_driver.sv(476) @ 5155: uvm_test_top.env.upstream_agent.write_driver [MGR_WR] Now asserting upstream BREADY at 5155
UVM_INFO ./uvm/axi4l_uvc/axi4l_write_driver.sv(630) @ 5185: uvm_test_top.env.downstream_agent.write_driver [SUB_WR] Now asserting BVALID
UVM_INFO ./uvm/axi4l_uvc/sequences/axi4l_write_seq.sv(15) @ 5195: uvm_test_top.env.upstream_agent.write_sequencer@@manager_write_seq [norm5_manager_write_seq] Upstream AXI4-Lite write Sequence
UVM_INFO ./uvm/axi4l_uvc/sequences/axi4l_write_seq.sv(51) @ 5195: uvm_test_top.env.downstream_agent.write_sequencer@@subordinate_write_seq [norm5_subordinate_write_seq] Downstream AXI4-Lite write Sequence
UVM_INFO ./uvm/axi4l_uvc/axi4l_write_driver.sv(413) @ 5215: uvm_test_top.env.upstream_agent.write_driver [MGR_WR] Upstream AW handshake completed at 5215
UVM_INFO ./uvm/axi4l_uvc/axi4l_write_driver.sv(556) @ 5245: uvm_test_top.env.downstream_agent.write_driver [SUB_WR] Passed AW/W handshakes
UVM_INFO ./uvm/axi4l_uvc/axi4l_write_driver.sv(619) @ 5245: uvm_test_top.env.downstream_agent.write_driver [SUB_WR] Waiting bvalid_delay=3 cycles
UVM_INFO ./uvm/axi4l_uvc/axi4l_write_driver.sv(443) @ 5245: uvm_test_top.env.upstream_agent.write_driver [MGR_WR] Upstream W handshake completed at 5245
UVM_INFO ./uvm/axi4l_uvc/axi4l_write_driver.sv(460) @ 5245: uvm_test_top.env.upstream_agent.write_driver [MGR_WR] Upstream AW/W completed at 5245; bready_delay=5
UVM_INFO ./uvm/axi4l_uvc/axi4l_write_driver.sv(630) @ 5275: uvm_test_top.env.downstream_agent.write_driver [SUB_WR] Now asserting BVALID
UVM_INFO ./uvm/axi4l_uvc/axi4l_write_driver.sv(476) @ 5295: uvm_test_top.env.upstream_agent.write_driver [MGR_WR] Now asserting upstream BREADY at 5295
UVM_INFO ./uvm/axi4l_uvc/sequences/axi4l_write_seq.sv(15) @ 5305: uvm_test_top.env.upstream_agent.write_sequencer@@manager_write_seq [norm5_manager_write_seq] Upstream AXI4-Lite write Sequence
UVM_INFO ./uvm/axi4l_uvc/sequences/axi4l_write_seq.sv(51) @ 5305: uvm_test_top.env.downstream_agent.write_sequencer@@subordinate_write_seq [norm5_subordinate_write_seq] Downstream AXI4-Lite write Sequence
UVM_INFO ./uvm/axi4l_uvc/axi4l_write_driver.sv(413) @ 5365: uvm_test_top.env.upstream_agent.write_driver [MGR_WR] Upstream AW handshake completed at 5365
UVM_INFO ./uvm/axi4l_uvc/axi4l_write_driver.sv(556) @ 5375: uvm_test_top.env.downstream_agent.write_driver [SUB_WR] Passed AW/W handshakes
UVM_INFO ./uvm/axi4l_uvc/axi4l_write_driver.sv(619) @ 5375: uvm_test_top.env.downstream_agent.write_driver [SUB_WR] Waiting bvalid_delay=0 cycles
UVM_INFO ./uvm/axi4l_uvc/axi4l_write_driver.sv(630) @ 5375: uvm_test_top.env.downstream_agent.write_driver [SUB_WR] Now asserting BVALID
UVM_INFO ./uvm/axi4l_uvc/axi4l_write_driver.sv(443) @ 5375: uvm_test_top.env.upstream_agent.write_driver [MGR_WR] Upstream W handshake completed at 5375
UVM_INFO ./uvm/axi4l_uvc/axi4l_write_driver.sv(460) @ 5375: uvm_test_top.env.upstream_agent.write_driver [MGR_WR] Upstream AW/W completed at 5375; bready_delay=3
UVM_INFO ./uvm/axi4l_uvc/axi4l_write_driver.sv(476) @ 5405: uvm_test_top.env.upstream_agent.write_driver [MGR_WR] Now asserting upstream BREADY at 5405
UVM_INFO ./uvm/axi4l_uvc/sequences/axi4l_write_seq.sv(15) @ 5415: uvm_test_top.env.upstream_agent.write_sequencer@@manager_write_seq [norm5_manager_write_seq] Upstream AXI4-Lite write Sequence
UVM_INFO ./uvm/axi4l_uvc/sequences/axi4l_write_seq.sv(51) @ 5415: uvm_test_top.env.downstream_agent.write_sequencer@@subordinate_write_seq [norm5_subordinate_write_seq] Downstream AXI4-Lite write Sequence
UVM_INFO ./uvm/axi4l_uvc/axi4l_write_driver.sv(413) @ 5425: uvm_test_top.env.upstream_agent.write_driver [MGR_WR] Upstream AW handshake completed at 5425
UVM_INFO ./uvm/axi4l_uvc/axi4l_write_driver.sv(556) @ 5465: uvm_test_top.env.downstream_agent.write_driver [SUB_WR] Passed AW/W handshakes
UVM_INFO ./uvm/axi4l_uvc/axi4l_write_driver.sv(619) @ 5465: uvm_test_top.env.downstream_agent.write_driver [SUB_WR] Waiting bvalid_delay=2 cycles
UVM_INFO ./uvm/axi4l_uvc/axi4l_write_driver.sv(443) @ 5465: uvm_test_top.env.upstream_agent.write_driver [MGR_WR] Upstream W handshake completed at 5465
UVM_INFO ./uvm/axi4l_uvc/axi4l_write_driver.sv(460) @ 5465: uvm_test_top.env.upstream_agent.write_driver [MGR_WR] Upstream AW/W completed at 5465; bready_delay=4
UVM_INFO ./uvm/axi4l_uvc/axi4l_write_driver.sv(630) @ 5485: uvm_test_top.env.downstream_agent.write_driver [SUB_WR] Now asserting BVALID
UVM_INFO ./uvm/axi4l_uvc/axi4l_write_driver.sv(476) @ 5505: uvm_test_top.env.upstream_agent.write_driver [MGR_WR] Now asserting upstream BREADY at 5505
UVM_INFO ./uvm/axi4l_uvc/sequences/axi4l_write_seq.sv(15) @ 5515: uvm_test_top.env.upstream_agent.write_sequencer@@manager_write_seq [norm5_manager_write_seq] Upstream AXI4-Lite write Sequence
UVM_INFO ./uvm/axi4l_uvc/sequences/axi4l_write_seq.sv(51) @ 5515: uvm_test_top.env.downstream_agent.write_sequencer@@subordinate_write_seq [norm5_subordinate_write_seq] Downstream AXI4-Lite write Sequence
UVM_INFO ./uvm/axi4l_uvc/axi4l_write_driver.sv(413) @ 5535: uvm_test_top.env.upstream_agent.write_driver [MGR_WR] Upstream AW handshake completed at 5535
UVM_INFO ./uvm/axi4l_uvc/axi4l_write_driver.sv(556) @ 5555: uvm_test_top.env.downstream_agent.write_driver [SUB_WR] Passed AW/W handshakes
UVM_INFO ./uvm/axi4l_uvc/axi4l_write_driver.sv(619) @ 5555: uvm_test_top.env.downstream_agent.write_driver [SUB_WR] Waiting bvalid_delay=2 cycles
UVM_INFO ./uvm/axi4l_uvc/axi4l_write_driver.sv(443) @ 5555: uvm_test_top.env.upstream_agent.write_driver [MGR_WR] Upstream W handshake completed at 5555
UVM_INFO ./uvm/axi4l_uvc/axi4l_write_driver.sv(460) @ 5555: uvm_test_top.env.upstream_agent.write_driver [MGR_WR] Upstream AW/W completed at 5555; bready_delay=1
UVM_INFO ./uvm/axi4l_uvc/axi4l_write_driver.sv(476) @ 5565: uvm_test_top.env.upstream_agent.write_driver [MGR_WR] Now asserting upstream BREADY at 5565
UVM_INFO ./uvm/axi4l_uvc/axi4l_write_driver.sv(630) @ 5575: uvm_test_top.env.downstream_agent.write_driver [SUB_WR] Now asserting BVALID
UVM_INFO ./uvm/axi4l_uvc/sequences/axi4l_write_seq.sv(15) @ 5585: uvm_test_top.env.upstream_agent.write_sequencer@@manager_write_seq [norm5_manager_write_seq] Upstream AXI4-Lite write Sequence
UVM_INFO ./uvm/axi4l_uvc/sequences/axi4l_write_seq.sv(51) @ 5585: uvm_test_top.env.downstream_agent.write_sequencer@@subordinate_write_seq [norm5_subordinate_write_seq] Downstream AXI4-Lite write Sequence
UVM_INFO ./uvm/axi4l_uvc/axi4l_write_driver.sv(413) @ 5645: uvm_test_top.env.upstream_agent.write_driver [MGR_WR] Upstream AW handshake completed at 5645
UVM_INFO ./uvm/axi4l_uvc/axi4l_write_driver.sv(556) @ 5655: uvm_test_top.env.downstream_agent.write_driver [SUB_WR] Passed AW/W handshakes
UVM_INFO ./uvm/axi4l_uvc/axi4l_write_driver.sv(619) @ 5655: uvm_test_top.env.downstream_agent.write_driver [SUB_WR] Waiting bvalid_delay=5 cycles
UVM_INFO ./uvm/axi4l_uvc/axi4l_write_driver.sv(443) @ 5655: uvm_test_top.env.upstream_agent.write_driver [MGR_WR] Upstream W handshake completed at 5655
UVM_INFO ./uvm/axi4l_uvc/axi4l_write_driver.sv(460) @ 5655: uvm_test_top.env.upstream_agent.write_driver [MGR_WR] Upstream AW/W completed at 5655; bready_delay=5
UVM_INFO ./uvm/axi4l_uvc/axi4l_write_driver.sv(630) @ 5705: uvm_test_top.env.downstream_agent.write_driver [SUB_WR] Now asserting BVALID
UVM_INFO ./uvm/axi4l_uvc/axi4l_write_driver.sv(476) @ 5705: uvm_test_top.env.upstream_agent.write_driver [MGR_WR] Now asserting upstream BREADY at 5705
UVM_INFO ./uvm/axi4l_uvc/sequences/axi4l_write_seq.sv(15) @ 5715: uvm_test_top.env.upstream_agent.write_sequencer@@manager_write_seq [norm5_manager_write_seq] Upstream AXI4-Lite write Sequence
UVM_INFO ./uvm/axi4l_uvc/sequences/axi4l_write_seq.sv(51) @ 5715: uvm_test_top.env.downstream_agent.write_sequencer@@subordinate_write_seq [norm5_subordinate_write_seq] Downstream AXI4-Lite write Sequence
UVM_INFO ./uvm/axi4l_uvc/axi4l_write_driver.sv(413) @ 5725: uvm_test_top.env.upstream_agent.write_driver [MGR_WR] Upstream AW handshake completed at 5725
UVM_INFO ./uvm/axi4l_uvc/axi4l_write_driver.sv(556) @ 5775: uvm_test_top.env.downstream_agent.write_driver [SUB_WR] Passed AW/W handshakes
UVM_INFO ./uvm/axi4l_uvc/axi4l_write_driver.sv(619) @ 5775: uvm_test_top.env.downstream_agent.write_driver [SUB_WR] Waiting bvalid_delay=1 cycles
UVM_INFO ./uvm/axi4l_uvc/axi4l_write_driver.sv(443) @ 5775: uvm_test_top.env.upstream_agent.write_driver [MGR_WR] Upstream W handshake completed at 5775
UVM_INFO ./uvm/axi4l_uvc/axi4l_write_driver.sv(460) @ 5775: uvm_test_top.env.upstream_agent.write_driver [MGR_WR] Upstream AW/W completed at 5775; bready_delay=1
UVM_INFO ./uvm/axi4l_uvc/axi4l_write_driver.sv(630) @ 5785: uvm_test_top.env.downstream_agent.write_driver [SUB_WR] Now asserting BVALID
UVM_INFO ./uvm/axi4l_uvc/axi4l_write_driver.sv(476) @ 5785: uvm_test_top.env.upstream_agent.write_driver [MGR_WR] Now asserting upstream BREADY at 5785
UVM_INFO ./uvm/axi4l_uvc/sequences/axi4l_write_seq.sv(15) @ 5795: uvm_test_top.env.upstream_agent.write_sequencer@@manager_write_seq [norm5_manager_write_seq] Upstream AXI4-Lite write Sequence
UVM_INFO ./uvm/axi4l_uvc/sequences/axi4l_write_seq.sv(51) @ 5795: uvm_test_top.env.downstream_agent.write_sequencer@@subordinate_write_seq [norm5_subordinate_write_seq] Downstream AXI4-Lite write Sequence
UVM_INFO ./uvm/axi4l_uvc/axi4l_write_driver.sv(413) @ 5855: uvm_test_top.env.upstream_agent.write_driver [MGR_WR] Upstream AW handshake completed at 5855
UVM_INFO ./uvm/axi4l_uvc/axi4l_write_driver.sv(556) @ 5865: uvm_test_top.env.downstream_agent.write_driver [SUB_WR] Passed AW/W handshakes
UVM_INFO ./uvm/axi4l_uvc/axi4l_write_driver.sv(619) @ 5865: uvm_test_top.env.downstream_agent.write_driver [SUB_WR] Waiting bvalid_delay=1 cycles
UVM_INFO ./uvm/axi4l_uvc/axi4l_write_driver.sv(443) @ 5865: uvm_test_top.env.upstream_agent.write_driver [MGR_WR] Upstream W handshake completed at 5865
UVM_INFO ./uvm/axi4l_uvc/axi4l_write_driver.sv(460) @ 5865: uvm_test_top.env.upstream_agent.write_driver [MGR_WR] Upstream AW/W completed at 5865; bready_delay=0
UVM_INFO ./uvm/axi4l_uvc/axi4l_write_driver.sv(476) @ 5865: uvm_test_top.env.upstream_agent.write_driver [MGR_WR] Now asserting upstream BREADY at 5865
UVM_INFO ./uvm/axi4l_uvc/axi4l_write_driver.sv(630) @ 5875: uvm_test_top.env.downstream_agent.write_driver [SUB_WR] Now asserting BVALID
UVM_INFO ./uvm/axi4l_uvc/sequences/axi4l_write_seq.sv(15) @ 5885: uvm_test_top.env.upstream_agent.write_sequencer@@manager_write_seq [norm5_manager_write_seq] Upstream AXI4-Lite write Sequence
UVM_INFO ./uvm/axi4l_uvc/sequences/axi4l_write_seq.sv(51) @ 5885: uvm_test_top.env.downstream_agent.write_sequencer@@subordinate_write_seq [norm5_subordinate_write_seq] Downstream AXI4-Lite write Sequence
UVM_INFO ./uvm/axi4l_uvc/axi4l_write_driver.sv(413) @ 5935: uvm_test_top.env.upstream_agent.write_driver [MGR_WR] Upstream AW handshake completed at 5935
UVM_INFO ./uvm/axi4l_uvc/axi4l_write_driver.sv(556) @ 5945: uvm_test_top.env.downstream_agent.write_driver [SUB_WR] Passed AW/W handshakes
UVM_INFO ./uvm/axi4l_uvc/axi4l_write_driver.sv(619) @ 5945: uvm_test_top.env.downstream_agent.write_driver [SUB_WR] Waiting bvalid_delay=0 cycles
UVM_INFO ./uvm/axi4l_uvc/axi4l_write_driver.sv(630) @ 5945: uvm_test_top.env.downstream_agent.write_driver [SUB_WR] Now asserting BVALID
UVM_INFO ./uvm/axi4l_uvc/axi4l_write_driver.sv(443) @ 5945: uvm_test_top.env.upstream_agent.write_driver [MGR_WR] Upstream W handshake completed at 5945
UVM_INFO ./uvm/axi4l_uvc/axi4l_write_driver.sv(460) @ 5945: uvm_test_top.env.upstream_agent.write_driver [MGR_WR] Upstream AW/W completed at 5945; bready_delay=1
UVM_INFO ./uvm/axi4l_uvc/axi4l_write_driver.sv(476) @ 5955: uvm_test_top.env.upstream_agent.write_driver [MGR_WR] Now asserting upstream BREADY at 5955
UVM_INFO ./uvm/axi4l_uvc/sequences/axi4l_write_seq.sv(15) @ 5965: uvm_test_top.env.upstream_agent.write_sequencer@@manager_write_seq [norm5_manager_write_seq] Upstream AXI4-Lite write Sequence
UVM_INFO ./uvm/axi4l_uvc/sequences/axi4l_write_seq.sv(51) @ 5965: uvm_test_top.env.downstream_agent.write_sequencer@@subordinate_write_seq [norm5_subordinate_write_seq] Downstream AXI4-Lite write Sequence
UVM_INFO ./uvm/axi4l_uvc/axi4l_write_driver.sv(413) @ 5975: uvm_test_top.env.upstream_agent.write_driver [MGR_WR] Upstream AW handshake completed at 5975
UVM_INFO ./uvm/axi4l_uvc/axi4l_write_driver.sv(556) @ 6015: uvm_test_top.env.downstream_agent.write_driver [SUB_WR] Passed AW/W handshakes
UVM_INFO ./uvm/axi4l_uvc/axi4l_write_driver.sv(619) @ 6015: uvm_test_top.env.downstream_agent.write_driver [SUB_WR] Waiting bvalid_delay=2 cycles
UVM_INFO ./uvm/axi4l_uvc/axi4l_write_driver.sv(443) @ 6015: uvm_test_top.env.upstream_agent.write_driver [MGR_WR] Upstream W handshake completed at 6015
UVM_INFO ./uvm/axi4l_uvc/axi4l_write_driver.sv(460) @ 6015: uvm_test_top.env.upstream_agent.write_driver [MGR_WR] Upstream AW/W completed at 6015; bready_delay=4
UVM_INFO ./uvm/axi4l_uvc/axi4l_write_driver.sv(630) @ 6035: uvm_test_top.env.downstream_agent.write_driver [SUB_WR] Now asserting BVALID
UVM_INFO ./uvm/axi4l_uvc/axi4l_write_driver.sv(476) @ 6055: uvm_test_top.env.upstream_agent.write_driver [MGR_WR] Now asserting upstream BREADY at 6055
UVM_INFO ./uvm/axi4l_uvc/sequences/axi4l_write_seq.sv(15) @ 6065: uvm_test_top.env.upstream_agent.write_sequencer@@manager_write_seq [norm5_manager_write_seq] Upstream AXI4-Lite write Sequence
UVM_INFO ./uvm/axi4l_uvc/sequences/axi4l_write_seq.sv(51) @ 6065: uvm_test_top.env.downstream_agent.write_sequencer@@subordinate_write_seq [norm5_subordinate_write_seq] Downstream AXI4-Lite write Sequence
UVM_INFO ./uvm/axi4l_uvc/axi4l_write_driver.sv(413) @ 6075: uvm_test_top.env.upstream_agent.write_driver [MGR_WR] Upstream AW handshake completed at 6075
UVM_INFO ./uvm/axi4l_uvc/axi4l_write_driver.sv(556) @ 6115: uvm_test_top.env.downstream_agent.write_driver [SUB_WR] Passed AW/W handshakes
UVM_INFO ./uvm/axi4l_uvc/axi4l_write_driver.sv(619) @ 6115: uvm_test_top.env.downstream_agent.write_driver [SUB_WR] Waiting bvalid_delay=2 cycles
UVM_INFO ./uvm/axi4l_uvc/axi4l_write_driver.sv(443) @ 6115: uvm_test_top.env.upstream_agent.write_driver [MGR_WR] Upstream W handshake completed at 6115
UVM_INFO ./uvm/axi4l_uvc/axi4l_write_driver.sv(460) @ 6115: uvm_test_top.env.upstream_agent.write_driver [MGR_WR] Upstream AW/W completed at 6115; bready_delay=5
UVM_INFO ./uvm/axi4l_uvc/axi4l_write_driver.sv(630) @ 6135: uvm_test_top.env.downstream_agent.write_driver [SUB_WR] Now asserting BVALID
UVM_INFO ./uvm/axi4l_uvc/axi4l_write_driver.sv(476) @ 6165: uvm_test_top.env.upstream_agent.write_driver [MGR_WR] Now asserting upstream BREADY at 6165
UVM_INFO ./uvm/axi4l_uvc/sequences/axi4l_write_seq.sv(15) @ 6175: uvm_test_top.env.upstream_agent.write_sequencer@@manager_write_seq [norm5_manager_write_seq] Upstream AXI4-Lite write Sequence
UVM_INFO ./uvm/axi4l_uvc/sequences/axi4l_write_seq.sv(51) @ 6175: uvm_test_top.env.downstream_agent.write_sequencer@@subordinate_write_seq [norm5_subordinate_write_seq] Downstream AXI4-Lite write Sequence
UVM_INFO ./uvm/axi4l_uvc/axi4l_write_driver.sv(413) @ 6185: uvm_test_top.env.upstream_agent.write_driver [MGR_WR] Upstream AW handshake completed at 6185
UVM_INFO ./uvm/axi4l_uvc/axi4l_write_driver.sv(556) @ 6205: uvm_test_top.env.downstream_agent.write_driver [SUB_WR] Passed AW/W handshakes
UVM_INFO ./uvm/axi4l_uvc/axi4l_write_driver.sv(619) @ 6205: uvm_test_top.env.downstream_agent.write_driver [SUB_WR] Waiting bvalid_delay=0 cycles
UVM_INFO ./uvm/axi4l_uvc/axi4l_write_driver.sv(630) @ 6205: uvm_test_top.env.downstream_agent.write_driver [SUB_WR] Now asserting BVALID
UVM_INFO ./uvm/axi4l_uvc/axi4l_write_driver.sv(443) @ 6205: uvm_test_top.env.upstream_agent.write_driver [MGR_WR] Upstream W handshake completed at 6205
UVM_INFO ./uvm/axi4l_uvc/axi4l_write_driver.sv(460) @ 6205: uvm_test_top.env.upstream_agent.write_driver [MGR_WR] Upstream AW/W completed at 6205; bready_delay=0
UVM_INFO ./uvm/axi4l_uvc/axi4l_write_driver.sv(476) @ 6205: uvm_test_top.env.upstream_agent.write_driver [MGR_WR] Now asserting upstream BREADY at 6205
UVM_INFO ./uvm/axi4l_uvc/sequences/axi4l_write_seq.sv(15) @ 6215: uvm_test_top.env.upstream_agent.write_sequencer@@manager_write_seq [norm5_manager_write_seq] Upstream AXI4-Lite write Sequence
UVM_INFO ./uvm/axi4l_uvc/sequences/axi4l_write_seq.sv(51) @ 6215: uvm_test_top.env.downstream_agent.write_sequencer@@subordinate_write_seq [norm5_subordinate_write_seq] Downstream AXI4-Lite write Sequence
UVM_INFO ./uvm/axi4l_uvc/axi4l_write_driver.sv(413) @ 6255: uvm_test_top.env.upstream_agent.write_driver [MGR_WR] Upstream AW handshake completed at 6255
UVM_INFO ./uvm/axi4l_uvc/axi4l_write_driver.sv(556) @ 6275: uvm_test_top.env.downstream_agent.write_driver [SUB_WR] Passed AW/W handshakes
UVM_INFO ./uvm/axi4l_uvc/axi4l_write_driver.sv(619) @ 6275: uvm_test_top.env.downstream_agent.write_driver [SUB_WR] Waiting bvalid_delay=5 cycles
UVM_INFO ./uvm/axi4l_uvc/axi4l_write_driver.sv(443) @ 6275: uvm_test_top.env.upstream_agent.write_driver [MGR_WR] Upstream W handshake completed at 6275
UVM_INFO ./uvm/axi4l_uvc/axi4l_write_driver.sv(460) @ 6275: uvm_test_top.env.upstream_agent.write_driver [MGR_WR] Upstream AW/W completed at 6275; bready_delay=0
UVM_INFO ./uvm/axi4l_uvc/axi4l_write_driver.sv(476) @ 6275: uvm_test_top.env.upstream_agent.write_driver [MGR_WR] Now asserting upstream BREADY at 6275
UVM_INFO ./uvm/axi4l_uvc/axi4l_write_driver.sv(630) @ 6325: uvm_test_top.env.downstream_agent.write_driver [SUB_WR] Now asserting BVALID
UVM_INFO ./uvm/axi4l_uvc/sequences/axi4l_write_seq.sv(15) @ 6335: uvm_test_top.env.upstream_agent.write_sequencer@@manager_write_seq [norm5_manager_write_seq] Upstream AXI4-Lite write Sequence
UVM_INFO ./uvm/axi4l_uvc/sequences/axi4l_write_seq.sv(51) @ 6335: uvm_test_top.env.downstream_agent.write_sequencer@@subordinate_write_seq [norm5_subordinate_write_seq] Downstream AXI4-Lite write Sequence
UVM_INFO ./uvm/axi4l_uvc/axi4l_write_driver.sv(413) @ 6385: uvm_test_top.env.upstream_agent.write_driver [MGR_WR] Upstream AW handshake completed at 6385
UVM_INFO ./uvm/axi4l_uvc/axi4l_write_driver.sv(556) @ 6395: uvm_test_top.env.downstream_agent.write_driver [SUB_WR] Passed AW/W handshakes
UVM_INFO ./uvm/axi4l_uvc/axi4l_write_driver.sv(619) @ 6395: uvm_test_top.env.downstream_agent.write_driver [SUB_WR] Waiting bvalid_delay=4 cycles
UVM_INFO ./uvm/axi4l_uvc/axi4l_write_driver.sv(443) @ 6395: uvm_test_top.env.upstream_agent.write_driver [MGR_WR] Upstream W handshake completed at 6395
UVM_INFO ./uvm/axi4l_uvc/axi4l_write_driver.sv(460) @ 6395: uvm_test_top.env.upstream_agent.write_driver [MGR_WR] Upstream AW/W completed at 6395; bready_delay=2
